date Tue Jun 17 06:44:16.289 PM 2025
base hex  timestamps absolute
internal events logged
Begin Triggerblock Tue Jun 17 06:44:16.320 PM 2025
 0.000000 Start of measurement
 0.000000 1  716             Tx   d 8 02 10 01 00 00 00 00 00
 0.007418 1  1B1             Rx   d 8 04 01 01 00 01 01 00 04
 0.017451 1  36E             Rx   d 8 00 00 00 00 00 00 00 00
 0.022401 1  71E             Rx   d 8 06 50 01 00 32 01 F4 AA
 0.037518 1  3D5             Rx   d 8 FF 08 00 00 FC 00 00 00
 0.057417 1  1B2             Rx   d 8 F0 F0 0F FF C0 F3 FC 00
 0.207305 1  1B1             Rx   d 8 04 01 01 00 01 01 00 04
 0.217313 1  36E             Rx   d 8 00 00 00 00 00 00 00 00
 0.237280 1  3D5             Rx   d 8 FF 08 00 00 FC 00 00 00
 0.257240 1  1B2             Rx   d 8 F0 F0 0F FF C0 F3 FC 00
 0.407279 1  1B1             Rx   d 8 04 01 01 00 01 01 00 04
 0.417312 1  36E             Rx   d 8 00 00 00 00 00 00 00 00
 0.437290 1  3D5             Rx   d 8 FF 08 00 00 FC 00 00 00
 0.457262 1  1B2             Rx   d 8 F0 F0 0F FF C0 F3 FC 00
 0.607278 1  1B1             Rx   d 8 04 01 01 00 01 01 00 04
 0.617310 1  36E             Rx   d 8 00 00 00 00 00 00 00 00
 0.637286 1  3D5             Rx   d 8 FF 08 00 00 FC 00 00 00
 0.657232 1  1B2             Rx   d 8 F0 F0 0F FF C0 F3 FC 00
 0.807272 1  1B1             Rx   d 8 04 01 01 00 01 01 00 04
 0.817317 1  36E             Rx   d 8 00 00 00 00 00 00 00 00
 0.837291 1  3D5             Rx   d 8 FF 08 00 00 FC 00 00 00
 0.857239 1  1B2             Rx   d 8 F0 F0 0F FF C0 F3 FC 00
 0.952299 1  457             Rx   d 8 57 04 00 00 00 00 FF FF
 1.007264 1  1B1             Rx   d 8 04 01 01 00 01 01 00 04
 1.017304 1  36E             Rx   d 8 00 00 00 00 00 00 00 00
 1.037281 1  3D5             Rx   d 8 FF 08 00 00 FC 00 00 00
 1.057244 1  1B2             Rx   d 8 F0 F0 0F FF C0 F3 FC 00
 1.207286 1  1B1             Rx   d 8 04 01 01 00 01 01 00 04
 1.217328 1  36E             Rx   d 8 00 00 00 00 00 00 00 00
 1.237292 1  3D5             Rx   d 8 FF 08 00 00 FC 00 00 00
 1.257257 1  1B2             Rx   d 8 F0 F0 0F FF C0 F3 FC 00
 1.407296 1  1B1             Rx   d 8 04 01 01 00 01 01 00 04
 1.417321 1  36E             Rx   d 8 00 00 00 00 00 00 00 00
 1.437297 1  3D5             Rx   d 8 FF 08 00 00 FC 00 00 00
 1.457274 1  1B2             Rx   d 8 F0 F0 0F FF C0 F3 FC 00
 1.607298 1  1B1             Rx   d 8 04 01 01 00 01 01 00 04
 1.617340 1  36E             Rx   d 8 00 00 00 00 00 00 00 00
 1.637298 1  3D5             Rx   d 8 FF 08 00 00 FC 00 00 00
 1.657258 1  1B2             Rx   d 8 F0 F0 0F FF C0 F3 FC 00
 1.807292 1  1B1             Rx   d 8 04 01 01 00 01 01 00 04
 1.817327 1  36E             Rx   d 8 00 00 00 00 00 00 00 00
 1.837300 1  3D5             Rx   d 8 FF 08 00 00 FC 00 00 00
 1.857252 1  1B2             Rx   d 8 F0 F0 0F FF C0 F3 FC 00
 1.952300 1  457             Rx   d 8 57 04 00 00 00 00 FF FF
 2.007313 1  1B1             Rx   d 8 04 01 01 00 01 01 00 04
 2.017327 1  36E             Rx   d 8 00 00 00 00 00 00 00 00
 2.037313 1  3D5             Rx   d 8 FF 08 00 00 FC 00 00 00
 2.057261 1  1B2             Rx   d 8 F0 F0 0F FF C0 F3 FC 00
 2.198684 1  716             Tx   d 8 02 10 03 00 00 00 00 00
 2.207344 1  1B1             Rx   d 8 04 01 01 00 01 01 00 04
 2.217391 1  36E             Rx   d 8 00 00 00 00 00 00 00 00
 2.222326 1  71E             Rx   d 8 06 50 03 00 32 01 F4 AA
 2.237551 1  3D5             Rx   d 8 FF 08 00 00 FC 00 00 00
 2.257335 1  1B2             Rx   d 8 F0 F0 0F FF C0 F3 FC 00
 2.407380 1  1B1             Rx   d 8 04 01 01 00 01 01 00 04
 2.417572 1  36E             Rx   d 8 00 00 00 00 00 00 00 00
 2.437369 1  3D5             Rx   d 8 FF 08 00 00 FC 00 00 00
 2.457313 1  1B2             Rx   d 8 F0 F0 0F FF C0 F3 FC 00
 2.607308 1  1B1             Rx   d 8 04 01 01 00 01 01 00 04
 2.617369 1  36E             Rx   d 8 00 00 00 00 00 00 00 00
 2.637333 1  3D5             Rx   d 8 FF 08 00 00 FC 00 00 00
 2.657273 1  1B2             Rx   d 8 F0 F0 0F FF C0 F3 FC 00
 2.807328 1  1B1             Rx   d 8 04 01 01 00 01 01 00 04
 2.817374 1  36E             Rx   d 8 00 00 00 00 00 00 00 00
 2.837345 1  3D5             Rx   d 8 FF 08 00 00 FC 00 00 00
 2.857274 1  1B2             Rx   d 8 F0 F0 0F FF C0 F3 FC 00
 2.952353 1  457             Rx   d 8 57 04 00 00 00 00 FF FF
 3.007317 1  1B1             Rx   d 8 04 01 01 00 01 01 00 04
 3.017345 1  36E             Rx   d 8 00 00 00 00 00 00 00 00
 3.037343 1  3D5             Rx   d 8 FF 08 00 00 FC 00 00 00
 3.057286 1  1B2             Rx   d 8 F0 F0 0F FF C0 F3 FC 00
 3.207310 1  1B1             Rx   d 8 04 01 01 00 01 01 00 04
 3.217350 1  36E             Rx   d 8 00 00 00 00 00 00 00 00
 3.237329 1  3D5             Rx   d 8 FF 08 00 00 FC 00 00 00
 3.257289 1  1B2             Rx   d 8 F0 F0 0F FF C0 F3 FC 00
 3.407335 1  1B1             Rx   d 8 04 01 01 00 01 01 00 04
 3.417374 1  36E             Rx   d 8 00 00 00 00 00 00 00 00
 3.437341 1  3D5             Rx   d 8 FF 08 00 00 FC 00 00 00
 3.457319 1  1B2             Rx   d 8 F0 F0 0F FF C0 F3 FC 00
 3.607330 1  1B1             Rx   d 8 04 01 01 00 01 01 00 04
 3.617376 1  36E             Rx   d 8 00 00 00 00 00 00 00 00
 3.637349 1  3D5             Rx   d 8 FF 08 00 00 FC 00 00 00
 3.657308 1  1B2             Rx   d 8 F0 F0 0F FF C0 F3 FC 00
 3.807342 1  1B1             Rx   d 8 04 01 01 00 01 01 00 04
 3.817359 1  36E             Rx   d 8 00 00 00 00 00 00 00 00
 3.837343 1  3D5             Rx   d 8 FF 08 00 00 FC 00 00 00
 3.857289 1  1B2             Rx   d 8 F0 F0 0F FF C0 F3 FC 00
 3.952370 1  457             Rx   d 8 57 04 00 00 00 00 FF FF
 4.007318 1  1B1             Rx   d 8 04 01 01 00 01 01 00 04
 4.017357 1  36E             Rx   d 8 00 00 00 00 00 00 00 00
 4.037343 1  3D5             Rx   d 8 FF 08 00 00 FC 00 00 00
 4.057299 1  1B2             Rx   d 8 F0 F0 0F FF C0 F3 FC 00
 4.207323 1  1B1             Rx   d 8 04 01 01 00 01 01 00 04
 4.217365 1  36E             Rx   d 8 00 00 00 00 00 00 00 00
 4.237347 1  3D5             Rx   d 8 FF 08 00 00 FC 00 00 00
 4.257305 1  1B2             Rx   d 8 F0 F0 0F FF C0 F3 FC 00
 4.400044 1  7DF             Tx   d 8 02 3E 00 00 00 00 00 00
 4.407400 1  1B1             Rx   d 8 04 01 01 00 01 01 00 04
 4.412296 1  71E             Rx   d 8 02 7E 00 AA AA AA AA AA
 4.417504 1  36E             Rx   d 8 00 00 00 00 00 00 00 00
 4.437522 1  3D5             Rx   d 8 FF 08 00 00 FC 00 00 00
 4.457412 1  1B2             Rx   d 8 F0 F0 0F FF C0 F3 FC 00
 4.607363 1  1B1             Rx   d 8 04 01 01 00 01 01 00 04
 4.617406 1  36E             Rx   d 8 00 00 00 00 00 00 00 00
 4.637376 1  3D5             Rx   d 8 FF 08 00 00 FC 00 00 00
 4.657298 1  1B2             Rx   d 8 F0 F0 0F FF C0 F3 FC 00
 4.807352 1  1B1             Rx   d 8 04 01 01 00 01 01 00 04
 4.817372 1  36E             Rx   d 8 00 00 00 00 00 00 00 00
 4.837352 1  3D5             Rx   d 8 FF 08 00 00 FC 00 00 00
 4.857297 1  1B2             Rx   d 8 F0 F0 0F FF C0 F3 FC 00
 4.952342 1  457             Rx   d 8 57 04 00 00 00 00 FF FF
 5.007332 1  1B1             Rx   d 8 04 01 01 00 01 01 00 04
 5.017364 1  36E             Rx   d 8 00 00 00 00 00 00 00 00
 5.037349 1  3D5             Rx   d 8 FF 08 00 00 FC 00 00 00
 5.057305 1  1B2             Rx   d 8 F0 F0 0F FF C0 F3 FC 00
 5.207429 1  1B1             Rx   d 8 04 01 01 00 01 01 00 04
 5.217460 1  36E             Rx   d 8 00 00 00 00 00 00 00 00
 5.237475 1  3D5             Rx   d 8 FF 08 00 00 FC 00 00 00
 5.257411 1  1B2             Rx   d 8 F0 F0 0F FF C0 F3 FC 00
 5.407466 1  1B1             Rx   d 8 04 01 01 00 01 01 00 04
 5.417470 1  36E             Rx   d 8 00 00 00 00 00 00 00 00
 5.437463 1  3D5             Rx   d 8 FF 08 00 00 FC 00 00 00
 5.457420 1  1B2             Rx   d 8 F0 F0 0F FF C0 F3 FC 00
 5.607441 1  1B1             Rx   d 8 04 01 01 00 01 01 00 04
 5.617509 1  36E             Rx   d 8 00 00 00 00 00 00 00 00
 5.637451 1  3D5             Rx   d 8 FF 08 00 00 FC 00 00 00
 5.657397 1  1B2             Rx   d 8 F0 F0 0F FF C0 F3 FC 00
 5.807439 1  1B1             Rx   d 8 04 01 01 00 01 01 00 04
 5.817476 1  36E             Rx   d 8 00 00 00 00 00 00 00 00
 5.837475 1  3D5             Rx   d 8 FF 08 00 00 FC 00 00 00
 5.857480 1  1B2             Rx   d 8 F0 F0 0F FF C0 F3 FC 00
 5.952487 1  457             Rx   d 8 57 04 00 00 00 00 FF FF
 6.007425 1  1B1             Rx   d 8 04 01 01 00 01 01 00 04
 6.017467 1  36E             Rx   d 8 00 00 00 00 00 00 00 00
 6.037472 1  3D5             Rx   d 8 FF 08 00 00 FC 00 00 00
 6.057408 1  1B2             Rx   d 8 F0 F0 0F FF C0 F3 FC 00
 6.207436 1  1B1             Rx   d 8 04 01 01 00 01 01 00 04
 6.217478 1  36E             Rx   d 8 00 00 00 00 00 00 00 00
 6.237476 1  3D5             Rx   d 8 FF 08 00 00 FC 00 00 00
 6.257450 1  1B2             Rx   d 8 F0 F0 0F FF C0 F3 FC 00
 6.407483 1  1B1             Rx   d 8 04 01 01 00 01 01 00 04
 6.417524 1  36E             Rx   d 8 00 00 00 00 00 00 00 00
 6.437480 1  3D5             Rx   d 8 FF 08 00 00 FC 00 00 00
 6.457450 1  1B2             Rx   d 8 F0 F0 0F FF C0 F3 FC 00
 6.592874 1  716             Tx   d 8 03 22 F1 DD 00 00 00 00
 6.607530 1  1B1             Rx   d 8 04 01 01 00 01 01 00 04
 6.612487 1  71E             Rx   d 8 10 0B 62 F1 DD 30 31 2E
 6.617781 1  36E             Rx   d 8 00 00 00 00 00 00 00 00
 6.625496 1  716             Tx   d 8 30 08 0A 00 00 00 00 00
 6.627545 1  71E             Rx   d 8 21 30 31 2E 30 30 AA AA
 6.637708 1  3D5             Rx   d 8 FF 08 00 00 FC 00 00 00
 6.657602 1  1B2             Rx   d 8 F0 F0 0F FF C0 F3 FC 00
 6.807393 1  1B1             Rx   d 8 04 01 01 00 01 01 00 04
 6.817419 1  36E             Rx   d 8 00 00 00 00 00 00 00 00
 6.837389 1  3D5             Rx   d 8 FF 08 00 00 FC 00 00 00
 6.857341 1  1B2             Rx   d 8 F0 F0 0F FF C0 F3 FC 00
 6.952398 1  457             Rx   d 8 57 04 00 00 00 00 FF FF
 7.007365 1  1B1             Rx   d 8 04 01 01 00 01 01 00 04
 7.017406 1  36E             Rx   d 8 00 00 00 00 00 00 00 00
 7.037386 1  3D5             Rx   d 8 FF 08 00 00 FC 00 00 00
 7.057343 1  1B2             Rx   d 8 F0 F0 0F FF C0 F3 FC 00
 7.207372 1  1B1             Rx   d 8 04 01 01 00 01 01 00 04
 7.217407 1  36E             Rx   d 8 00 00 00 00 00 00 00 00
 7.237385 1  3D5             Rx   d 8 FF 08 00 00 FC 00 00 00
 7.257353 1  1B2             Rx   d 8 F0 F0 0F FF C0 F3 FC 00
 7.407398 1  1B1             Rx   d 8 04 01 01 00 01 01 00 04
 7.417431 1  36E             Rx   d 8 00 00 00 00 00 00 00 00
 7.437403 1  3D5             Rx   d 8 FF 08 00 00 FC 00 00 00
 7.457371 1  1B2             Rx   d 8 F0 F0 0F FF C0 F3 FC 00
 7.607394 1  1B1             Rx   d 8 04 01 01 00 01 01 00 04
 7.617435 1  36E             Rx   d 8 00 00 00 00 00 00 00 00
 7.637401 1  3D5             Rx   d 8 FF 08 00 00 FC 00 00 00
 7.657343 1  1B2             Rx   d 8 F0 F0 0F FF C0 F3 FC 00
 7.807398 1  1B1             Rx   d 8 04 01 01 00 01 01 00 04
 7.817435 1  36E             Rx   d 8 00 00 00 00 00 00 00 00
 7.837402 1  3D5             Rx   d 8 FF 08 00 00 FC 00 00 00
 7.857383 1  1B2             Rx   d 8 F0 F0 0F FF C0 F3 FC 00
 7.952412 1  457             Rx   d 8 57 04 00 00 00 00 FF FF
 8.007381 1  1B1             Rx   d 8 04 01 01 00 01 01 00 04
 8.017418 1  36E             Rx   d 8 00 00 00 00 00 00 00 00
 8.037441 1  3D5             Rx   d 8 FF 08 00 00 FC 00 00 00
 8.057372 1  1B2             Rx   d 8 F0 F0 0F FF C0 F3 FC 00
 8.207393 1  1B1             Rx   d 8 04 01 01 00 01 01 00 04
 8.217435 1  36E             Rx   d 8 00 00 00 00 00 00 00 00
 8.237404 1  3D5             Rx   d 8 FF 08 00 00 FC 00 00 00
 8.257365 1  1B2             Rx   d 8 F0 F0 0F FF C0 F3 FC 00
 8.407400 1  1B1             Rx   d 8 04 01 01 00 01 01 00 04
 8.417442 1  36E             Rx   d 8 00 00 00 00 00 00 00 00
 8.437419 1  3D5             Rx   d 8 FF 08 00 00 FC 00 00 00
 8.457389 1  1B2             Rx   d 8 F0 F0 0F FF C0 F3 FC 00
 8.607399 1  1B1             Rx   d 8 04 01 01 00 01 01 00 04
 8.617431 1  36E             Rx   d 8 00 00 00 00 00 00 00 00
 8.637413 1  3D5             Rx   d 8 FF 08 00 00 FC 00 00 00
 8.657361 1  1B2             Rx   d 8 F0 F0 0F FF C0 F3 FC 00
 8.795382 1  716             Tx   d 8 03 22 F1 00 00 00 00 00
 8.807454 1  1B1             Rx   d 8 04 01 01 00 01 01 00 04
 8.812399 1  71E             Rx   d 8 06 62 F1 00 25 04 01 AA
 8.817559 1  36E             Rx   d 8 00 00 00 00 00 00 00 00
 8.837663 1  3D5             Rx   d 8 FF 08 00 00 FC 00 00 00
 8.857512 1  1B2             Rx   d 8 F0 F0 0F FF C0 F3 FC 00
 8.952569 1  457             Rx   d 8 57 04 00 00 00 00 FF FF
 9.007614 1  1B1             Rx   d 8 04 01 01 00 01 01 00 04
 9.017510 1  36E             Rx   d 8 00 00 00 00 00 00 00 00
 9.037437 1  3D5             Rx   d 8 FF 08 00 00 FC 00 00 00
 9.057382 1  1B2             Rx   d 8 F0 F0 0F FF C0 F3 FC 00
 9.207408 1  1B1             Rx   d 8 04 01 01 00 01 01 00 04
 9.217442 1  36E             Rx   d 8 00 00 00 00 00 00 00 00
 9.237422 1  3D5             Rx   d 8 FF 08 00 00 FC 00 00 00
 9.257383 1  1B2             Rx   d 8 F0 F0 0F FF C0 F3 FC 00
 9.407413 1  1B1             Rx   d 8 04 01 01 00 01 01 00 04
 9.417450 1  36E             Rx   d 8 00 00 00 00 00 00 00 00
 9.437431 1  3D5             Rx   d 8 FF 08 00 00 FC 00 00 00
 9.457399 1  1B2             Rx   d 8 F0 F0 0F FF C0 F3 FC 00
 9.607412 1  1B1             Rx   d 8 04 01 01 00 01 01 00 04
 9.617447 1  36E             Rx   d 8 00 00 00 00 00 00 00 00
 9.637434 1  3D5             Rx   d 8 FF 08 00 00 FC 00 00 00
 9.657379 1  1B2             Rx   d 8 F0 F0 0F FF C0 F3 FC 00
 9.807422 1  1B1             Rx   d 8 04 01 01 00 01 01 00 04
 9.817463 1  36E             Rx   d 8 00 00 00 00 00 00 00 00
 9.837433 1  3D5             Rx   d 8 FF 08 00 00 FC 00 00 00
 9.857386 1  1B2             Rx   d 8 F0 F0 0F FF C0 F3 FC 00
 9.952442 1  457             Rx   d 8 57 04 00 00 00 00 FF FF
 10.007419 1  1B1             Rx   d 8 04 01 01 00 01 01 00 04
 10.017449 1  36E             Rx   d 8 00 00 00 00 00 00 00 00
 10.037434 1  3D5             Rx   d 8 FF 08 00 00 FC 00 00 00
 10.057384 1  1B2             Rx   d 8 F0 F0 0F FF C0 F3 FC 00
 10.207414 1  1B1             Rx   d 8 04 01 01 00 01 01 00 04
 10.217456 1  36E             Rx   d 8 00 00 00 00 00 00 00 00
 10.237432 1  3D5             Rx   d 8 FF 08 00 00 FC 00 00 00
 10.257384 1  1B2             Rx   d 8 F0 F0 0F FF C0 F3 FC 00
 10.407425 1  1B1             Rx   d 8 04 01 01 00 01 01 00 04
 10.417478 1  36E             Rx   d 8 00 00 00 00 00 00 00 00
 10.437448 1  3D5             Rx   d 8 FF 08 00 00 FC 00 00 00
 10.457411 1  1B2             Rx   d 8 F0 F0 0F FF C0 F3 FC 00
 10.607437 1  1B1             Rx   d 8 04 01 01 00 01 01 00 04
 10.617465 1  36E             Rx   d 8 00 00 00 00 00 00 00 00
 10.637442 1  3D5             Rx   d 8 FF 08 00 00 FC 00 00 00
 10.657389 1  1B2             Rx   d 8 F0 F0 0F FF C0 F3 FC 00
 10.807432 1  1B1             Rx   d 8 04 01 01 00 01 01 00 04
 10.817480 1  36E             Rx   d 8 00 00 00 00 00 00 00 00
 10.837447 1  3D5             Rx   d 8 FF 08 00 00 FC 00 00 00
 10.857395 1  1B2             Rx   d 8 F0 F0 0F FF C0 F3 FC 00
 10.952470 1  457             Rx   d 8 57 04 00 00 00 00 FF FF
 10.985900 1  716             Tx   d 8 03 22 F1 87 00 00 00 00
 11.002485 1  71E             Rx   d 8 10 0D 62 F1 87 39 36 35
 11.007465 1  1B1             Rx   d 8 04 01 01 00 01 01 00 04
 11.008640 1  716             Tx   d 8 30 08 0A 00 00 00 00 00
 11.012604 1  71E             Rx   d 8 21 34 30 44 59 30 30 30
 11.017735 1  36E             Rx   d 8 00 00 00 00 00 00 00 00
 11.037674 1  3D5             Rx   d 8 FF 08 00 00 FC 00 00 00
 11.057542 1  1B2             Rx   d 8 F0 F0 0F FF C0 F3 FC 00
 11.207464 1  1B1             Rx   d 8 04 01 01 00 01 01 00 04
 11.217489 1  36E             Rx   d 8 00 00 00 00 00 00 00 00
 11.237468 1  3D5             Rx   d 8 FF 08 00 00 FC 00 00 00
 11.257407 1  1B2             Rx   d 8 F0 F0 0F FF C0 F3 FC 00
 11.407452 1  1B1             Rx   d 8 04 01 01 00 01 01 00 04
 11.417496 1  36E             Rx   d 8 00 00 00 00 00 00 00 00
 11.437463 1  3D5             Rx   d 8 FF 08 00 00 FC 00 00 00
 11.457431 1  1B2             Rx   d 8 F0 F0 0F FF C0 F3 FC 00
 11.607445 1  1B1             Rx   d 8 04 01 01 00 01 01 00 04
 11.617480 1  36E             Rx   d 8 00 00 00 00 00 00 00 00
 11.637508 1  3D5             Rx   d 8 FF 08 00 00 FC 00 00 00
 11.657419 1  1B2             Rx   d 8 F0 F0 0F FF C0 F3 FC 00
 11.807546 1  1B1             Rx   d 8 04 01 01 00 01 01 00 04
 11.817572 1  36E             Rx   d 8 00 00 00 00 00 00 00 00
 11.837556 1  3D5             Rx   d 8 FF 08 00 00 FC 00 00 00
 11.857506 1  1B2             Rx   d 8 F0 F0 0F FF C0 F3 FC 00
 11.952565 1  457             Rx   d 8 57 04 00 00 00 00 FF FF
 12.007532 1  1B1             Rx   d 8 04 01 01 00 01 01 00 04
 12.017570 1  36E             Rx   d 8 00 00 00 00 00 00 00 00
 12.037615 1  3D5             Rx   d 8 FF 08 00 00 FC 00 00 00
 12.057509 1  1B2             Rx   d 8 F0 F0 0F FF C0 F3 FC 00
 12.207552 1  1B1             Rx   d 8 04 01 01 00 01 01 00 04
 12.217571 1  36E             Rx   d 8 00 00 00 00 00 00 00 00
 12.237556 1  3D5             Rx   d 8 FF 08 00 00 FC 00 00 00
 12.257508 1  1B2             Rx   d 8 F0 F0 0F FF C0 F3 FC 00
 12.407580 1  1B1             Rx   d 8 04 01 01 00 01 01 00 04
 12.417584 1  36E             Rx   d 8 00 00 00 00 00 00 00 00
 12.437567 1  3D5             Rx   d 8 FF 08 00 00 FC 00 00 00
 12.457537 1  1B2             Rx   d 8 F0 F0 0F FF C0 F3 FC 00
 12.607557 1  1B1             Rx   d 8 04 01 01 00 01 01 00 04
 12.617582 1  36E             Rx   d 8 00 00 00 00 00 00 00 00
 12.637563 1  3D5             Rx   d 8 FF 08 00 00 FC 00 00 00
 12.657517 1  1B2             Rx   d 8 F0 F0 0F FF C0 F3 FC 00
 12.807577 1  1B1             Rx   d 8 04 01 01 00 01 01 00 04
 12.817597 1  36E             Rx   d 8 00 00 00 00 00 00 00 00
 12.837616 1  3D5             Rx   d 8 FF 08 00 00 FC 00 00 00
 12.857522 1  1B2             Rx   d 8 F0 F0 0F FF C0 F3 FC 00
 12.952652 1  457             Rx   d 8 57 04 00 00 00 00 FF FF
 13.007559 1  1B1             Rx   d 8 04 01 01 00 01 01 00 04
 13.017593 1  36E             Rx   d 8 00 00 00 00 00 00 00 00
 13.037569 1  3D5             Rx   d 8 FF 08 00 00 FC 00 00 00
 13.057544 1  1B2             Rx   d 8 F0 F0 0F FF C0 F3 FC 00
 13.195083 1  716             Tx   d 8 03 22 F1 8B 00 00 00 00
 13.207662 1  1B1             Rx   d 8 04 01 01 00 01 01 00 04
 13.212669 1  71E             Rx   d 8 07 62 F1 8B 32 30 32 35
 13.217953 1  36E             Rx   d 8 00 00 00 00 00 00 00 00
 13.237795 1  3D5             Rx   d 8 FF 08 00 00 FC 00 00 00
 13.258028 1  1B2             Rx   d 8 F0 F0 0F FF C0 F3 FC 00
 13.407500 1  1B1             Rx   d 8 04 01 01 00 01 01 00 04
 13.417496 1  36E             Rx   d 8 00 00 00 00 00 00 00 00
 13.437486 1  3D5             Rx   d 8 FF 08 00 00 FC 00 00 00
 13.457445 1  1B2             Rx   d 8 F0 F0 0F FF C0 F3 FC 00
 13.607494 1  1B1             Rx   d 8 04 01 01 00 01 01 00 04
 13.617506 1  36E             Rx   d 8 00 00 00 00 00 00 00 00
 13.637506 1  3D5             Rx   d 8 FF 08 00 00 FC 00 00 00
 13.657441 1  1B2             Rx   d 8 F0 F0 0F FF C0 F3 FC 00
 13.807481 1  1B1             Rx   d 8 04 01 01 00 01 01 00 04
 13.817523 1  36E             Rx   d 8 00 00 00 00 00 00 00 00
 13.837493 1  3D5             Rx   d 8 FF 08 00 00 FC 00 00 00
 13.857449 1  1B2             Rx   d 8 F0 F0 0F FF C0 F3 FC 00
 13.952497 1  457             Rx   d 8 57 04 00 00 00 00 FF FF
 14.007469 1  1B1             Rx   d 8 04 01 01 00 01 01 00 04
 14.017504 1  36E             Rx   d 8 00 00 00 00 00 00 00 00
 14.037481 1  3D5             Rx   d 8 FF 08 00 00 FC 00 00 00
 14.057428 1  1B2             Rx   d 8 F0 F0 0F FF C0 F3 FC 00
 14.207461 1  1B1             Rx   d 8 04 01 01 00 01 01 00 04
 14.217509 1  36E             Rx   d 8 00 00 00 00 00 00 00 00
 14.237487 1  3D5             Rx   d 8 FF 08 00 00 FC 00 00 00
 14.257439 1  1B2             Rx   d 8 F0 F0 0F FF C0 F3 FC 00
 14.407489 1  1B1             Rx   d 8 04 01 01 00 01 01 00 04
 14.417513 1  36E             Rx   d 8 00 00 00 00 00 00 00 00
 14.437489 1  3D5             Rx   d 8 FF 08 00 00 FC 00 00 00
 14.457465 1  1B2             Rx   d 8 F0 F0 0F FF C0 F3 FC 00
 14.607482 1  1B1             Rx   d 8 04 01 01 00 01 01 00 04
 14.617508 1  36E             Rx   d 8 00 00 00 00 00 00 00 00
 14.637491 1  3D5             Rx   d 8 FF 08 00 00 FC 00 00 00
 14.657444 1  1B2             Rx   d 8 F0 F0 0F FF C0 F3 FC 00
 14.807483 1  1B1             Rx   d 8 04 01 01 00 01 01 00 04
 14.817531 1  36E             Rx   d 8 00 00 00 00 00 00 00 00
 14.837502 1  3D5             Rx   d 8 FF 08 00 00 FC 00 00 00
 14.857454 1  1B2             Rx   d 8 F0 F0 0F FF C0 F3 FC 00
 14.952520 1  457             Rx   d 8 57 04 00 00 00 00 FF FF
 15.007474 1  1B1             Rx   d 8 04 01 01 00 01 01 00 04
 15.017516 1  36E             Rx   d 8 00 00 00 00 00 00 00 00
 15.037503 1  3D5             Rx   d 8 FF 08 00 00 FC 00 00 00
 15.057448 1  1B2             Rx   d 8 F0 F0 0F FF C0 F3 FC 00
 15.207480 1  1B1             Rx   d 8 04 01 01 00 01 01 00 04
 15.217525 1  36E             Rx   d 8 00 00 00 00 00 00 00 00
 15.237504 1  3D5             Rx   d 8 FF 08 00 00 FC 00 00 00
 15.257450 1  1B2             Rx   d 8 F0 F0 0F FF C0 F3 FC 00
 15.387249 1  716             Tx   d 8 03 22 F1 8C 00 00 00 00
 15.402513 1  71E             Rx   d 8 10 0D 62 F1 8C 61 38 31
 15.407550 1  1B1             Rx   d 8 04 01 01 00 01 01 00 04
 15.408699 1  716             Tx   d 8 30 08 0A 00 00 00 00 00
 15.412529 1  71E             Rx   d 8 21 31 32 33 34 35 37 39
 15.417799 1  36E             Rx   d 8 00 00 00 00 00 00 00 00
 15.437734 1  3D5             Rx   d 8 FF 08 00 00 FC 00 00 00
 15.457566 1  1B2             Rx   d 8 F0 F0 0F FF C0 F3 FC 00
 15.607525 1  1B1             Rx   d 8 04 01 01 00 01 01 00 04
 15.617542 1  36E             Rx   d 8 00 00 00 00 00 00 00 00
 15.637526 1  3D5             Rx   d 8 FF 08 00 00 FC 00 00 00
 15.657465 1  1B2             Rx   d 8 F0 F0 0F FF C0 F3 FC 00
 15.807497 1  1B1             Rx   d 8 04 01 01 00 01 01 00 04
 15.817544 1  36E             Rx   d 8 00 00 00 00 00 00 00 00
 15.837527 1  3D5             Rx   d 8 FF 08 00 00 FC 00 00 00
 15.857468 1  1B2             Rx   d 8 F0 F0 0F FF C0 F3 FC 00
 15.952523 1  457             Rx   d 8 57 04 00 00 00 00 FF FF
 16.007486 1  1B1             Rx   d 8 04 01 01 00 01 01 00 04
 16.017534 1  36E             Rx   d 8 00 00 00 00 00 00 00 00
 16.037558 1  3D5             Rx   d 8 FF 08 00 00 FC 00 00 00
 16.057484 1  1B2             Rx   d 8 F0 F0 0F FF C0 F3 FC 00
 16.207525 1  1B1             Rx   d 8 04 01 01 00 01 01 00 04
 16.217554 1  36E             Rx   d 8 00 00 00 00 00 00 00 00
 16.237517 1  3D5             Rx   d 8 FF 08 00 00 FC 00 00 00
 16.257466 1  1B2             Rx   d 8 F0 F0 0F FF C0 F3 FC 00
 16.407523 1  1B1             Rx   d 8 04 01 01 00 01 01 00 04
 16.417546 1  36E             Rx   d 8 00 00 00 00 00 00 00 00
 16.437519 1  3D5             Rx   d 8 FF 08 00 00 FC 00 00 00
 16.457489 1  1B2             Rx   d 8 F0 F0 0F FF C0 F3 FC 00
 16.607502 1  1B1             Rx   d 8 04 01 01 00 01 01 00 04
 16.617544 1  36E             Rx   d 8 00 00 00 00 00 00 00 00
 16.637526 1  3D5             Rx   d 8 FF 08 00 00 FC 00 00 00
 16.657483 1  1B2             Rx   d 8 F0 F0 0F FF C0 F3 FC 00
 16.807523 1  1B1             Rx   d 8 04 01 01 00 01 01 00 04
 16.817563 1  36E             Rx   d 8 00 00 00 00 00 00 00 00
 16.837535 1  3D5             Rx   d 8 FF 08 00 00 FC 00 00 00
 16.857490 1  1B2             Rx   d 8 F0 F0 0F FF C0 F3 FC 00
 16.952541 1  457             Rx   d 8 57 04 00 00 00 00 FF FF
 17.007503 1  1B1             Rx   d 8 04 01 01 00 01 01 00 04
 17.017549 1  36E             Rx   d 8 00 00 00 00 00 00 00 00
 17.037533 1  3D5             Rx   d 8 FF 08 00 00 FC 00 00 00
 17.057481 1  1B2             Rx   d 8 F0 F0 0F FF C0 F3 FC 00
 17.207511 1  1B1             Rx   d 8 04 01 01 00 01 01 00 04
 17.217549 1  36E             Rx   d 8 00 00 00 00 00 00 00 00
 17.237536 1  3D5             Rx   d 8 FF 08 00 00 FC 00 00 00
 17.257480 1  1B2             Rx   d 8 F0 F0 0F FF C0 F3 FC 00
 17.407553 1  1B1             Rx   d 8 04 01 01 00 01 01 00 04
 17.417559 1  36E             Rx   d 8 00 00 00 00 00 00 00 00
 17.437538 1  3D5             Rx   d 8 FF 08 00 00 FC 00 00 00
 17.457510 1  1B2             Rx   d 8 F0 F0 0F FF C0 F3 FC 00
 17.585369 1  716             Tx   d 8 03 22 F1 91 00 00 00 00
 17.602540 1  71E             Rx   d 8 10 08 62 F1 91 30 31 2E
 17.607778 1  1B1             Rx   d 8 04 01 01 00 01 01 00 04
 17.609746 1  716             Tx   d 8 30 08 0A 00 00 00 00 00
 17.612587 1  71E             Rx   d 8 21 30 30 AA AA AA AA AA
 17.617828 1  36E             Rx   d 8 00 00 00 00 00 00 00 00
 17.637780 1  3D5             Rx   d 8 FF 08 00 00 FC 00 00 00
 17.657616 1  1B2             Rx   d 8 F0 F0 0F FF C0 F3 FC 00
 17.807569 1  1B1             Rx   d 8 04 01 01 00 01 01 00 04
 17.817594 1  36E             Rx   d 8 00 00 00 00 00 00 00 00
 17.837562 1  3D5             Rx   d 8 FF 08 00 00 FC 00 00 00
 17.857511 1  1B2             Rx   d 8 F0 F0 0F FF C0 F3 FC 00
 17.952564 1  457             Rx   d 8 57 04 00 00 00 00 FF FF
 18.007543 1  1B1             Rx   d 8 04 01 01 00 01 01 00 04
 18.017575 1  36E             Rx   d 8 00 00 00 00 00 00 00 00
 18.037556 1  3D5             Rx   d 8 FF 08 00 00 FC 00 00 00
 18.057505 1  1B2             Rx   d 8 F0 F0 0F FF C0 F3 FC 00
 18.207529 1  1B1             Rx   d 8 04 01 01 00 01 01 00 04
 18.217571 1  36E             Rx   d 8 00 00 00 00 00 00 00 00
 18.237550 1  3D5             Rx   d 8 FF 08 00 00 FC 00 00 00
 18.257503 1  1B2             Rx   d 8 F0 F0 0F FF C0 F3 FC 00
 18.407683 1  1B1             Rx   d 8 04 01 01 00 01 01 00 04
 18.417679 1  36E             Rx   d 8 00 00 00 00 00 00 00 00
 18.437648 1  3D5             Rx   d 8 FF 08 00 00 FC 00 00 00
 18.457639 1  1B2             Rx   d 8 F0 F0 0F FF C0 F3 FC 00
 18.607662 1  1B1             Rx   d 8 04 01 01 00 01 01 00 04
 18.617719 1  36E             Rx   d 8 00 00 00 00 00 00 00 00
 18.637654 1  3D5             Rx   d 8 FF 08 00 00 FC 00 00 00
 18.657607 1  1B2             Rx   d 8 F0 F0 0F FF C0 F3 FC 00
 18.807645 1  1B1             Rx   d 8 04 01 01 00 01 01 00 04
 18.817696 1  36E             Rx   d 8 00 00 00 00 00 00 00 00
 18.837664 1  3D5             Rx   d 8 FF 08 00 00 FC 00 00 00
 18.857607 1  1B2             Rx   d 8 F0 F0 0F FF C0 F3 FC 00
 18.952718 1  457             Rx   d 8 57 04 00 00 00 00 FF FF
 19.007645 1  1B1             Rx   d 8 04 01 01 00 01 01 00 04
 19.017684 1  36E             Rx   d 8 00 00 00 00 00 00 00 00
 19.037660 1  3D5             Rx   d 8 FF 08 00 00 FC 00 00 00
 19.057633 1  1B2             Rx   d 8 F0 F0 0F FF C0 F3 FC 00
 19.207653 1  1B1             Rx   d 8 04 01 01 00 01 01 00 04
 19.217678 1  36E             Rx   d 8 00 00 00 00 00 00 00 00
 19.237654 1  3D5             Rx   d 8 FF 08 00 00 FC 00 00 00
 19.257610 1  1B2             Rx   d 8 F0 F0 0F FF C0 F3 FC 00
 19.407674 1  1B1             Rx   d 8 04 01 01 00 01 01 00 04
 19.417689 1  36E             Rx   d 8 00 00 00 00 00 00 00 00
 19.437674 1  3D5             Rx   d 8 FF 08 00 00 FC 00 00 00
 19.457652 1  1B2             Rx   d 8 F0 F0 0F FF C0 F3 FC 00
 19.607691 1  1B1             Rx   d 8 04 01 01 00 01 01 00 04
 19.617691 1  36E             Rx   d 8 00 00 00 00 00 00 00 00
 19.637670 1  3D5             Rx   d 8 FF 08 00 00 FC 00 00 00
 19.657630 1  1B2             Rx   d 8 F0 F0 0F FF C0 F3 FC 00
 19.791679 1  716             Tx   d 8 03 22 F1 93 00 00 00 00
 19.807752 1  1B1             Rx   d 8 04 01 01 00 01 01 00 04
 19.812676 1  71E             Rx   d 8 10 08 62 F1 93 30 31 2E
 19.817832 1  36E             Rx   d 8 00 00 00 00 00 00 00 00
 19.822717 1  716             Tx   d 8 30 08 0A 00 00 00 00 00
 19.827761 1  71E             Rx   d 8 21 30 30 AA AA AA AA AA
 19.837962 1  3D5             Rx   d 8 FF 08 00 00 FC 00 00 00
 19.857838 1  1B2             Rx   d 8 F0 F0 0F FF C0 F3 FC 00
 19.953027 1  457             Rx   d 8 57 04 00 00 00 00 FF FF
 20.007593 1  1B1             Rx   d 8 04 01 01 00 01 01 00 04
 20.017629 1  36E             Rx   d 8 00 00 00 00 00 00 00 00
 20.037595 1  3D5             Rx   d 8 FF 08 00 00 FC 00 00 00
 20.057533 1  1B2             Rx   d 8 F0 F0 0F FF C0 F3 FC 00
 20.207577 1  1B1             Rx   d 8 04 01 01 00 01 01 00 04
 20.217606 1  36E             Rx   d 8 00 00 00 00 00 00 00 00
 20.237581 1  3D5             Rx   d 8 FF 08 00 00 FC 00 00 00
 20.257535 1  1B2             Rx   d 8 F0 F0 0F FF C0 F3 FC 00
 20.407580 1  1B1             Rx   d 8 04 01 01 00 01 01 00 04
 20.417618 1  36E             Rx   d 8 00 00 00 00 00 00 00 00
 20.437593 1  3D5             Rx   d 8 FF 08 00 00 FC 00 00 00
 20.457566 1  1B2             Rx   d 8 F0 F0 0F FF C0 F3 FC 00
 20.607577 1  1B1             Rx   d 8 04 01 01 00 01 01 00 04
 20.617615 1  36E             Rx   d 8 00 00 00 00 00 00 00 00
 20.637595 1  3D5             Rx   d 8 FF 08 00 00 FC 00 00 00
 20.657550 1  1B2             Rx   d 8 F0 F0 0F FF C0 F3 FC 00
 20.807563 1  1B1             Rx   d 8 04 01 01 00 01 01 00 04
 20.817620 1  36E             Rx   d 8 00 00 00 00 00 00 00 00
 20.837622 1  3D5             Rx   d 8 FF 08 00 00 FC 00 00 00
 20.857551 1  1B2             Rx   d 8 F0 F0 0F FF C0 F3 FC 00
 20.952611 1  457             Rx   d 8 57 04 00 00 00 00 FF FF
 21.007565 1  1B1             Rx   d 8 04 01 01 00 01 01 00 04
 21.017617 1  36E             Rx   d 8 00 00 00 00 00 00 00 00
 21.037602 1  3D5             Rx   d 8 FF 08 00 00 FC 00 00 00
 21.057563 1  1B2             Rx   d 8 F0 F0 0F FF C0 F3 FC 00
 21.207595 1  1B1             Rx   d 8 04 01 01 00 01 01 00 04
 21.217631 1  36E             Rx   d 8 00 00 00 00 00 00 00 00
 21.237596 1  3D5             Rx   d 8 FF 08 00 00 FC 00 00 00
 21.257561 1  1B2             Rx   d 8 F0 F0 0F FF C0 F3 FC 00
 21.407606 1  1B1             Rx   d 8 04 01 01 00 01 01 00 04
 21.417631 1  36E             Rx   d 8 00 00 00 00 00 00 00 00
 21.437607 1  3D5             Rx   d 8 FF 08 00 00 FC 00 00 00
 21.457578 1  1B2             Rx   d 8 F0 F0 0F FF C0 F3 FC 00
 21.607595 1  1B1             Rx   d 8 04 01 01 00 01 01 00 04
 21.617633 1  36E             Rx   d 8 00 00 00 00 00 00 00 00
 21.637603 1  3D5             Rx   d 8 FF 08 00 00 FC 00 00 00
 21.657561 1  1B2             Rx   d 8 F0 F0 0F FF C0 F3 FC 00
 21.807586 1  1B1             Rx   d 8 04 01 01 00 01 01 00 04
 21.817623 1  36E             Rx   d 8 00 00 00 00 00 00 00 00
 21.837633 1  3D5             Rx   d 8 FF 08 00 00 FC 00 00 00
 21.857565 1  1B2             Rx   d 8 F0 F0 0F FF C0 F3 FC 00
 21.952638 1  457             Rx   d 8 57 04 00 00 00 00 FF FF
 21.997151 1  716             Tx   d 8 03 22 F1 95 00 00 00 00
 22.007670 1  1B1             Rx   d 8 04 01 01 00 01 01 00 04
 22.012573 1  71E             Rx   d 8 10 08 62 F1 95 30 31 2E
 22.017724 1  36E             Rx   d 8 00 00 00 00 00 00 00 00
 22.018822 1  716             Tx   d 8 30 08 0A 00 00 00 00 00
 22.022609 1  71E             Rx   d 8 21 30 31 AA AA AA AA AA
 22.037900 1  3D5             Rx   d 8 FF 08 00 00 FC 00 00 00
 22.057743 1  1B2             Rx   d 8 F0 F0 0F FF C0 F3 FC 00
 22.207783 1  1B1             Rx   d 8 04 01 01 00 01 01 00 04
 22.218106 1  36E             Rx   d 8 00 00 00 00 00 00 00 00
 22.237652 1  3D5             Rx   d 8 FF 08 00 00 FC 00 00 00
 22.257577 1  1B2             Rx   d 8 F0 F0 0F FF C0 F3 FC 00
 22.407636 1  1B1             Rx   d 8 04 01 01 00 01 01 00 04
 22.417649 1  36E             Rx   d 8 00 00 00 00 00 00 00 00
 22.437622 1  3D5             Rx   d 8 FF 08 00 00 FC 00 00 00
 22.457596 1  1B2             Rx   d 8 F0 F0 0F FF C0 F3 FC 00
 22.607602 1  1B1             Rx   d 8 04 01 01 00 01 01 00 04
 22.617646 1  36E             Rx   d 8 00 00 00 00 00 00 00 00
 22.637631 1  3D5             Rx   d 8 FF 08 00 00 FC 00 00 00
 22.657566 1  1B2             Rx   d 8 F0 F0 0F FF C0 F3 FC 00
 22.807621 1  1B1             Rx   d 8 04 01 01 00 01 01 00 04
 22.817662 1  36E             Rx   d 8 00 00 00 00 00 00 00 00
 22.837650 1  3D5             Rx   d 8 FF 08 00 00 FC 00 00 00
 22.857581 1  1B2             Rx   d 8 F0 F0 0F FF C0 F3 FC 00
 22.952660 1  457             Rx   d 8 57 04 00 00 00 00 FF FF
 23.007603 1  1B1             Rx   d 8 04 01 01 00 01 01 00 04
 23.017640 1  36E             Rx   d 8 00 00 00 00 00 00 00 00
 23.037626 1  3D5             Rx   d 8 FF 08 00 00 FC 00 00 00
 23.057579 1  1B2             Rx   d 8 F0 F0 0F FF C0 F3 FC 00
 23.207662 1  1B1             Rx   d 8 04 01 01 00 01 01 00 04
 23.217664 1  36E             Rx   d 8 00 00 00 00 00 00 00 00
 23.237626 1  3D5             Rx   d 8 FF 08 00 00 FC 00 00 00
 23.257583 1  1B2             Rx   d 8 F0 F0 0F FF C0 F3 FC 00
 23.407633 1  1B1             Rx   d 8 04 01 01 00 01 01 00 04
 23.417661 1  36E             Rx   d 8 00 00 00 00 00 00 00 00
 23.437636 1  3D5             Rx   d 8 FF 08 00 00 FC 00 00 00
 23.457621 1  1B2             Rx   d 8 F0 F0 0F FF C0 F3 FC 00
 23.607639 1  1B1             Rx   d 8 04 01 01 00 01 01 00 04
 23.617664 1  36E             Rx   d 8 00 00 00 00 00 00 00 00
 23.637641 1  3D5             Rx   d 8 FF 08 00 00 FC 00 00 00
 23.657582 1  1B2             Rx   d 8 F0 F0 0F FF C0 F3 FC 00
 23.807626 1  1B1             Rx   d 8 04 01 01 00 01 01 00 04
 23.817671 1  36E             Rx   d 8 00 00 00 00 00 00 00 00
 23.837664 1  3D5             Rx   d 8 FF 08 00 00 FC 00 00 00
 23.857594 1  1B2             Rx   d 8 F0 F0 0F FF C0 F3 FC 00
 23.952641 1  457             Rx   d 8 57 04 00 00 00 00 FF FF
 24.007627 1  1B1             Rx   d 8 04 01 01 00 01 01 00 04
 24.017661 1  36E             Rx   d 8 00 00 00 00 00 00 00 00
 24.037637 1  3D5             Rx   d 8 FF 08 00 00 FC 00 00 00
 24.057600 1  1B2             Rx   d 8 F0 F0 0F FF C0 F3 FC 00
 24.192893 1  716             Tx   d 8 03 22 F1 A0 00 00 00 00
 24.207698 1  1B1             Rx   d 8 04 01 01 00 01 01 00 04
 24.212620 1  71E             Rx   d 8 10 08 62 F1 A0 30 31 2E
 24.217776 1  36E             Rx   d 8 00 00 00 00 00 00 00 00
 24.218900 1  716             Tx   d 8 30 08 0A 00 00 00 00 00
 24.222720 1  71E             Rx   d 8 21 30 31 AA AA AA AA AA
 24.237975 1  3D5             Rx   d 8 FF 08 00 00 FC 00 00 00
 24.257803 1  1B2             Rx   d 8 F0 F0 0F FF C0 F3 FC 00
 24.407674 1  1B1             Rx   d 8 04 01 01 00 01 01 00 04
 24.417713 1  36E             Rx   d 8 00 00 00 00 00 00 00 00
 24.437665 1  3D5             Rx   d 8 FF 08 00 00 FC 00 00 00
 24.457628 1  1B2             Rx   d 8 F0 F0 0F FF C0 F3 FC 00
 24.607645 1  1B1             Rx   d 8 04 01 01 00 01 01 00 04
 24.617676 1  36E             Rx   d 8 00 00 00 00 00 00 00 00
 24.637676 1  3D5             Rx   d 8 FF 08 00 00 FC 00 00 00
 24.657609 1  1B2             Rx   d 8 F0 F0 0F FF C0 F3 FC 00
 24.807637 1  1B1             Rx   d 8 04 01 01 00 01 01 00 04
 24.817667 1  36E             Rx   d 8 00 00 00 00 00 00 00 00
 24.837669 1  3D5             Rx   d 8 FF 08 00 00 FC 00 00 00
 24.857603 1  1B2             Rx   d 8 F0 F0 0F FF C0 F3 FC 00
 24.952747 1  457             Rx   d 8 57 04 00 00 00 00 FF FF
 25.007726 1  1B1             Rx   d 8 04 01 01 00 01 01 00 04
 25.017762 1  36E             Rx   d 8 00 00 00 00 00 00 00 00
 25.037732 1  3D5             Rx   d 8 FF 08 00 00 FC 00 00 00
 25.057710 1  1B2             Rx   d 8 F0 F0 0F FF C0 F3 FC 00
 25.207769 1  1B1             Rx   d 8 04 01 01 00 01 01 00 04
 25.217778 1  36E             Rx   d 8 00 00 00 00 00 00 00 00
 25.237745 1  3D5             Rx   d 8 FF 08 00 00 FC 00 00 00
 25.257720 1  1B2             Rx   d 8 F0 F0 0F FF C0 F3 FC 00
 25.407812 1  1B1             Rx   d 8 04 01 01 00 01 01 00 04
 25.417788 1  36E             Rx   d 8 00 00 00 00 00 00 00 00
 25.437768 1  3D5             Rx   d 8 FF 08 00 00 FC 00 00 00
 25.457724 1  1B2             Rx   d 8 F0 F0 0F FF C0 F3 FC 00
 25.607804 1  1B1             Rx   d 8 04 01 01 00 01 01 00 04
 25.617784 1  36E             Rx   d 8 00 00 00 00 00 00 00 00
 25.637760 1  3D5             Rx   d 8 FF 08 00 00 FC 00 00 00
 25.657717 1  1B2             Rx   d 8 F0 F0 0F FF C0 F3 FC 00
 25.807760 1  1B1             Rx   d 8 04 01 01 00 01 01 00 04
 25.817783 1  36E             Rx   d 8 00 00 00 00 00 00 00 00
 25.837782 1  3D5             Rx   d 8 FF 08 00 00 FC 00 00 00
 25.857723 1  1B2             Rx   d 8 F0 F0 0F FF C0 F3 FC 00
 25.952776 1  457             Rx   d 8 57 04 00 00 00 00 FF FF
 26.007742 1  1B1             Rx   d 8 04 01 01 00 01 01 00 04
 26.017782 1  36E             Rx   d 8 00 00 00 00 00 00 00 00
 26.037759 1  3D5             Rx   d 8 FF 08 00 00 FC 00 00 00
 26.057725 1  1B2             Rx   d 8 F0 F0 0F FF C0 F3 FC 00
 26.207777 1  1B1             Rx   d 8 04 01 01 00 01 01 00 04
 26.217781 1  36E             Rx   d 8 00 00 00 00 00 00 00 00
 26.237756 1  3D5             Rx   d 8 FF 08 00 00 FC 00 00 00
 26.257708 1  1B2             Rx   d 8 F0 F0 0F FF C0 F3 FC 00
 26.401288 1  7DF             Tx   d 8 30 08 0A 00 00 00 00 00
 26.407845 1  1B1             Rx   d 8 04 01 01 00 01 01 00 04
 26.412945 1  7DF             Tx   d 8 30 08 0A 00 00 00 00 00
 26.417996 1  36E             Rx   d 8 00 00 00 00 00 00 00 00
 26.422650 1  7DF             Tx   d 8 30 08 0A 00 00 00 00 00
 26.431161 1  7DF             Tx   d 8 30 08 0A 00 00 00 00 00
 26.438011 1  3D5             Rx   d 8 FF 08 00 00 FC 00 00 00
 26.442496 1  7DF             Tx   d 8 30 08 0A 00 00 00 00 00
 26.453163 1  7DF             Tx   d 8 30 08 0A 00 00 00 00 00
 26.457817 1  1B2             Rx   d 8 F0 F0 0F FF C0 F3 FC 00
 26.463149 1  7DF             Tx   d 8 30 08 0A 00 00 00 00 00
 26.480230 1  7DF             Tx   d 8 02 85 01 00 00 00 00 00
 26.492788 1  71E             Rx   d 8 02 C5 01 AA AA AA AA AA
 26.607780 1  1B1             Rx   d 8 04 01 01 00 01 01 00 04
 26.617838 1  36E             Rx   d 8 00 00 00 00 00 00 00 00
 26.637788 1  3D5             Rx   d 8 FF 08 00 00 FC 00 00 00
 26.657743 1  1B2             Rx   d 8 F0 F0 0F FF C0 F3 FC 00
 26.807708 1  1B1             Rx   d 8 04 01 01 00 01 01 00 04
 26.817709 1  36E             Rx   d 8 00 00 00 00 00 00 00 00
 26.837695 1  3D5             Rx   d 8 FF 08 00 00 FC 00 00 00
 26.857639 1  1B2             Rx   d 8 F0 F0 0F FF C0 F3 FC 00
 26.952702 1  457             Rx   d 8 57 04 00 00 00 00 FF FF
 27.007665 1  1B1             Rx   d 8 04 01 01 00 01 01 00 04
 27.017699 1  36E             Rx   d 8 00 00 00 00 00 00 00 00
 27.037680 1  3D5             Rx   d 8 FF 08 00 00 FC 00 00 00
 27.057637 1  1B2             Rx   d 8 F0 F0 0F FF C0 F3 FC 00
 27.207664 1  1B1             Rx   d 8 04 01 01 00 01 01 00 04
 27.217703 1  36E             Rx   d 8 00 00 00 00 00 00 00 00
 27.237680 1  3D5             Rx   d 8 FF 08 00 00 FC 00 00 00
 27.257631 1  1B2             Rx   d 8 F0 F0 0F FF C0 F3 FC 00
 27.407708 1  1B1             Rx   d 8 04 01 01 00 01 01 00 04
 27.417723 1  36E             Rx   d 8 00 00 00 00 00 00 00 00
 27.437694 1  3D5             Rx   d 8 FF 08 00 00 FC 00 00 00
 27.457666 1  1B2             Rx   d 8 F0 F0 0F FF C0 F3 FC 00
 27.607680 1  1B1             Rx   d 8 04 01 01 00 01 01 00 04
 27.617702 1  36E             Rx   d 8 00 00 00 00 00 00 00 00
 27.637685 1  3D5             Rx   d 8 FF 08 00 00 FC 00 00 00
 27.657644 1  1B2             Rx   d 8 F0 F0 0F FF C0 F3 FC 00
 27.807685 1  1B1             Rx   d 8 04 01 01 00 01 01 00 04
 27.817722 1  36E             Rx   d 8 00 00 00 00 00 00 00 00
 27.837710 1  3D5             Rx   d 8 FF 08 00 00 FC 00 00 00
 27.857650 1  1B2             Rx   d 8 F0 F0 0F FF C0 F3 FC 00
 27.952723 1  457             Rx   d 8 57 04 00 00 00 00 FF FF
 28.007678 1  1B1             Rx   d 8 04 01 01 00 01 01 00 04
 28.017714 1  36E             Rx   d 8 00 00 00 00 00 00 00 00
 28.037702 1  3D5             Rx   d 8 FF 08 00 00 FC 00 00 00
 28.057653 1  1B2             Rx   d 8 F0 F0 0F FF C0 F3 FC 00
 28.207677 1  1B1             Rx   d 8 04 01 01 00 01 01 00 04
 28.217715 1  36E             Rx   d 8 00 00 00 00 00 00 00 00
 28.237702 1  3D5             Rx   d 8 FF 08 00 00 FC 00 00 00
 28.257649 1  1B2             Rx   d 8 F0 F0 0F FF C0 F3 FC 00
 28.407707 1  1B1             Rx   d 8 04 01 01 00 01 01 00 04
 28.417740 1  36E             Rx   d 8 00 00 00 00 00 00 00 00
 28.437707 1  3D5             Rx   d 8 FF 08 00 00 FC 00 00 00
 28.457676 1  1B2             Rx   d 8 F0 F0 0F FF C0 F3 FC 00
 28.607712 1  1B1             Rx   d 8 04 01 01 00 01 01 00 04
 28.617734 1  36E             Rx   d 8 00 00 00 00 00 00 00 00
 28.637709 1  3D5             Rx   d 8 FF 08 00 00 FC 00 00 00
 28.657729 1  1B2             Rx   d 8 F0 F0 0F FF C0 F3 FC 00
 28.664830 1  7DF             Tx   d 8 02 85 02 00 00 00 00 00
 28.672755 1  71E             Rx   d 8 02 C5 02 AA AA AA AA AA
 28.807846 1  1B1             Rx   d 8 04 01 01 00 01 01 00 04
 28.817955 1  36E             Rx   d 8 00 00 00 00 00 00 00 00
 28.838253 1  3D5             Rx   d 8 FF 08 00 00 FC 00 00 00
 28.857774 1  1B2             Rx   d 8 F0 F0 0F FF C0 F3 FC 00
 28.952761 1  457             Rx   d 8 57 04 00 00 00 00 FF FF
 29.007708 1  1B1             Rx   d 8 04 01 01 00 01 01 00 04
 29.017734 1  36E             Rx   d 8 00 00 00 00 00 00 00 00
 29.037723 1  3D5             Rx   d 8 FF 08 00 00 FC 00 00 00
 29.057673 1  1B2             Rx   d 8 F0 F0 0F FF C0 F3 FC 00
 29.207693 1  1B1             Rx   d 8 04 01 01 00 01 01 00 04
 29.217734 1  36E             Rx   d 8 00 00 00 00 00 00 00 00
 29.237717 1  3D5             Rx   d 8 FF 08 00 00 FC 00 00 00
 29.257681 1  1B2             Rx   d 8 F0 F0 0F FF C0 F3 FC 00
 29.407726 1  1B1             Rx   d 8 04 01 01 00 01 01 00 04
 29.417745 1  36E             Rx   d 8 00 00 00 00 00 00 00 00
 29.437722 1  3D5             Rx   d 8 FF 08 00 00 FC 00 00 00
 29.457700 1  1B2             Rx   d 8 F0 F0 0F FF C0 F3 FC 00
 29.607727 1  1B1             Rx   d 8 04 01 01 00 01 01 00 04
 29.617740 1  36E             Rx   d 8 00 00 00 00 00 00 00 00
 29.637722 1  3D5             Rx   d 8 FF 08 00 00 FC 00 00 00
 29.657673 1  1B2             Rx   d 8 F0 F0 0F FF C0 F3 FC 00
 29.807710 1  1B1             Rx   d 8 04 01 01 00 01 01 00 04
 29.817746 1  36E             Rx   d 8 00 00 00 00 00 00 00 00
 29.837744 1  3D5             Rx   d 8 FF 08 00 00 FC 00 00 00
 29.857684 1  1B2             Rx   d 8 F0 F0 0F FF C0 F3 FC 00
 29.952739 1  457             Rx   d 8 57 04 00 00 00 00 FF FF
 30.007708 1  1B1             Rx   d 8 04 01 01 00 01 01 00 04
 30.017743 1  36E             Rx   d 8 00 00 00 00 00 00 00 00
 30.037724 1  3D5             Rx   d 8 FF 08 00 00 FC 00 00 00
 30.057674 1  1B2             Rx   d 8 F0 F0 0F FF C0 F3 FC 00
 30.207710 1  1B1             Rx   d 8 04 01 01 00 01 01 00 04
 30.217755 1  36E             Rx   d 8 00 00 00 00 00 00 00 00
 30.237772 1  3D5             Rx   d 8 FF 08 00 00 FC 00 00 00
 30.257709 1  1B2             Rx   d 8 F0 F0 0F FF C0 F3 FC 00
 30.407758 1  1B1             Rx   d 8 04 01 01 00 01 01 00 04
 30.417768 1  36E             Rx   d 8 00 00 00 00 00 00 00 00
 30.437749 1  3D5             Rx   d 8 FF 08 00 00 FC 00 00 00
 30.457719 1  1B2             Rx   d 8 F0 F0 0F FF C0 F3 FC 00
 30.607745 1  1B1             Rx   d 8 04 01 01 00 01 01 00 04
 30.617772 1  36E             Rx   d 8 00 00 00 00 00 00 00 00
 30.637741 1  3D5             Rx   d 8 FF 08 00 00 FC 00 00 00
 30.657700 1  1B2             Rx   d 8 F0 F0 0F FF C0 F3 FC 00
 30.807766 1  1B1             Rx   d 8 04 01 01 00 01 01 00 04
 30.817774 1  36E             Rx   d 8 00 00 00 00 00 00 00 00
 30.837801 1  3D5             Rx   d 8 FF 08 00 00 FC 00 00 00
 30.857774 1  1B2             Rx   d 8 F0 F0 0F FF C0 F3 FC 00
 30.952874 1  457             Rx   d 8 57 04 00 00 00 00 FF FF
 31.007906 1  1B1             Rx   d 8 04 01 01 00 01 01 00 04
 31.018409 1  36E             Rx   d 8 00 00 00 00 00 00 00 00
 31.037955 1  3D5             Rx   d 8 FF 08 00 00 FC 00 00 00
 31.057749 1  1B2             Rx   d 8 F0 F0 0F FF C0 F3 FC 00
 31.207770 1  1B1             Rx   d 8 04 01 01 00 01 01 00 04
 31.217786 1  36E             Rx   d 8 00 00 00 00 00 00 00 00
 31.237758 1  3D5             Rx   d 8 FF 08 00 00 FC 00 00 00
 31.257704 1  1B2             Rx   d 8 F0 F0 0F FF C0 F3 FC 00
 31.407761 1  1B1             Rx   d 8 04 01 01 00 01 01 00 04
 31.417786 1  36E             Rx   d 8 00 00 00 00 00 00 00 00
 31.437753 1  3D5             Rx   d 8 FF 08 00 00 FC 00 00 00
 31.457741 1  1B2             Rx   d 8 F0 F0 0F FF C0 F3 FC 00
 31.607887 1  1B1             Rx   d 8 04 01 01 00 01 01 00 04
 31.617975 1  36E             Rx   d 8 00 00 00 00 00 00 00 00
 31.637892 1  3D5             Rx   d 8 FF 08 00 00 FC 00 00 00
 31.657804 1  1B2             Rx   d 8 F0 F0 0F FF C0 F3 FC 00
 31.807854 1  1B1             Rx   d 8 04 01 01 00 01 01 00 04
 31.817910 1  36E             Rx   d 8 00 00 00 00 00 00 00 00
 31.837949 1  3D5             Rx   d 8 FF 08 00 00 FC 00 00 00
 31.857819 1  1B2             Rx   d 8 F0 F0 0F FF C0 F3 FC 00
 31.952870 1  457             Rx   d 8 57 04 00 00 00 00 FF FF
 32.007851 1  1B1             Rx   d 8 04 01 01 00 01 01 00 04
 32.017931 1  36E             Rx   d 8 00 00 00 00 00 00 00 00
 32.037894 1  3D5             Rx   d 8 FF 08 00 00 FC 00 00 00
 32.057829 1  1B2             Rx   d 8 F0 F0 0F FF C0 F3 FC 00
 32.207863 1  1B1             Rx   d 8 04 01 01 00 01 01 00 04
 32.217936 1  36E             Rx   d 8 00 00 00 00 00 00 00 00
 32.237892 1  3D5             Rx   d 8 FF 08 00 00 FC 00 00 00
 32.257813 1  1B2             Rx   d 8 F0 F0 0F FF C0 F3 FC 00
 32.407940 1  1B1             Rx   d 8 04 01 01 00 01 01 00 04
 32.417944 1  36E             Rx   d 8 00 00 00 00 00 00 00 00
 32.437898 1  3D5             Rx   d 8 FF 08 00 00 FC 00 00 00
 32.457904 1  1B2             Rx   d 8 F0 F0 0F FF C0 F3 FC 00
 32.607924 1  1B1             Rx   d 8 04 01 01 00 01 01 00 04
 32.617937 1  36E             Rx   d 8 00 00 00 00 00 00 00 00
 32.637905 1  3D5             Rx   d 8 FF 08 00 00 FC 00 00 00
 32.657830 1  1B2             Rx   d 8 F0 F0 0F FF C0 F3 FC 00
 32.807879 1  1B1             Rx   d 8 04 01 01 00 01 01 00 04
 32.817931 1  36E             Rx   d 8 00 00 00 00 00 00 00 00
 32.837950 1  3D5             Rx   d 8 FF 08 00 00 FC 00 00 00
 32.857889 1  1B2             Rx   d 8 F0 F0 0F FF C0 F3 FC 00
 32.952888 1  457             Rx   d 8 57 04 00 00 00 00 FF FF
 33.007942 1  1B1             Rx   d 8 04 01 01 00 01 01 00 04
 33.018038 1  36E             Rx   d 8 00 00 00 00 00 00 00 00
 33.021214 1  7DF             Tx   d 8 03 28 01 01 00 00 00 00
 33.038189 1  3D5             Rx   d 8 FF 08 00 00 FC 00 00 00
 33.043002 1  71E             Rx   d 8 02 68 01 AA AA AA AA AA
 33.952829 1  457             Rx   d 8 57 04 00 00 00 00 FF FF
 34.952838 1  457             Rx   d 8 57 04 00 00 00 00 FF FF
 35.226901 1  7DF             Tx   d 8 03 28 02 02 00 00 00 00
 35.242785 1  71E             Rx   d 8 02 68 02 AA AA AA AA AA
 35.952858 1  457             Rx   d 8 57 04 00 00 00 00 FF FF
 36.952872 1  457             Rx   d 8 57 04 00 00 00 00 FF FF
 37.412369 1  7DF             Tx   d 8 03 28 03 03 00 00 00 00
 37.432889 1  71E             Rx   d 8 02 68 03 AA AA AA AA AA
 39.621115 1  716             Tx   d 8 02 11 01 00 00 00 00 00
 39.633123 1  71E             Rx   d 8 02 51 01 AA AA AA AA AA
 39.941985 1  457             Rx   d 8 57 01 00 00 00 00 FF FF
 40.041909 1  457             Rx   d 8 57 02 00 00 00 00 FF FF
 40.056949 1  1B1             Rx   d 8 FF FF FF FF FF FF 00 FF
 40.061881 1  1B2             Rx   d 8 F0 F0 0F F3 C0 33 3C 00
 40.063062 1  B3              Rx   d 8 FF FF FF FD 38 00 00 00
 40.064294 1  36E             Rx   d 8 00 00 00 C0 00 00 00 00
 40.065514 1  3D5             Rx   d 8 FF 08 00 00 FC 00 00 00
 40.081897 1  1B1             Rx   d 8 04 01 01 00 01 01 00 04
 40.086926 1  36E             Rx   d 8 00 00 00 C0 00 00 00 00
 40.088144 1  3D5             Rx   d 8 FF 08 00 00 FC 00 00 00
 40.107043 1  1B2             Rx   d 8 F0 F0 0F F3 C0 33 3C 00
 40.256912 1  1B1             Rx   d 8 04 01 01 00 01 01 00 04
 40.266933 1  36E             Rx   d 8 00 00 00 C0 00 00 00 00
 40.286921 1  3D5             Rx   d 8 FF 08 00 00 FC 00 00 00
 40.306887 1  1B2             Rx   d 8 F0 F0 0F F3 C0 33 3C 00
 40.308084 1  457             Rx   d 8 57 01 00 00 00 00 FF FF
 40.406954 1  457             Rx   d 8 57 02 00 00 00 00 FF FF
 40.456952 1  1B1             Rx   d 8 04 01 01 00 01 01 00 04
 40.466977 1  36E             Rx   d 8 00 00 00 C0 00 00 00 00
 40.486975 1  3D5             Rx   d 8 FF 08 00 00 FC 00 00 00
 40.506897 1  1B2             Rx   d 8 F0 F0 0F F3 C0 33 3C 00
 40.656912 1  1B1             Rx   d 8 04 01 01 00 01 01 00 04
 40.666949 1  36E             Rx   d 8 00 00 00 C0 00 00 00 00
 40.671911 1  457             Rx   d 8 57 01 00 00 00 00 FF FF
 40.687008 1  3D5             Rx   d 8 FF 08 00 00 FC 00 00 00
 40.706894 1  1B2             Rx   d 8 F0 F0 0F F3 C0 33 3C 00
 40.771926 1  457             Rx   d 8 57 02 00 00 00 00 FF FF
 40.856929 1  1B1             Rx   d 8 04 01 01 00 01 01 00 04
 40.866954 1  36E             Rx   d 8 00 00 00 C0 00 00 00 00
 40.886932 1  3D5             Rx   d 8 FF 08 00 00 FC 00 00 00
 40.906881 1  1B2             Rx   d 8 F0 F0 0F F3 C0 33 3C 00
 41.036973 1  457             Rx   d 8 57 01 00 00 00 00 FF FF
 41.056925 1  1B1             Rx   d 8 04 01 01 00 01 01 00 04
 41.066949 1  36E             Rx   d 8 00 00 00 C0 00 00 00 00
 41.086944 1  3D5             Rx   d 8 FF 08 00 00 FC 00 00 00
 41.106885 1  1B2             Rx   d 8 F0 F0 0F F3 C0 33 3C 00
 41.136967 1  457             Rx   d 8 57 02 00 00 00 00 FF FF
