date Wed Oct 29 02:40:42.713 PM 2025
base hex  timestamps absolute
internal events logged
Begin Triggerblock Wed Oct 29 02:40:42.744 PM 2025
 0.000000 Start of measurement
 0.000000 1  7A7             Tx   d 8 03 22 F1 DD 00 00 00 00
 0.010235 1  7AF             Rx   d 8 07 F1 DD 41 30 30 30 31
 0.129144 1  7A7             Tx   d 8 03 22 F1 00 00 00 00 00
 0.140241 1  7AF             Rx   d 8 06 62 F1 00 31 2E 34 00
 0.252862 1  7A7             Tx   d 8 03 22 F1 8B 00 00 00 00
 0.260490 1  7AF             Rx   d 8 07 62 F1 8B 20 25 08 07
 0.375308 1  7A7             Tx   d 8 03 22 F1 8C 00 00 00 00
 0.380231 1  7AF             Rx   d 8 10 0B 62 F1 8C 90 90 90
 0.385693 1  7A7             Tx   d 8 30 08 0A 00 00 00 00 00
 0.430338 1  7AF             Rx   d 8 21 90 90 90 90 90 00 00
 0.548283 1  7A7             Tx   d 8 03 22 F1 93 00 00 00 00
 0.560319 1  7AF             Rx   d 8 07 62 F1 93 42 2E 4F 4F
 0.824110 1  7A7             Tx   d 8 02 10 01 00 00 00 00 00
 0.830045 1  7AF             Rx   d 8 02 50 01 00 00 00 00 00
 0.899750 1  7A7             Tx   d 8 03 22 F1 EF 00 00 00 00
 0.910094 1  7AF             Rx   d 8 10 2B 62 F1 EF 07 A7 0B
 0.914700 1  7A7             Tx   d 8 30 08 0A 00 00 00 00 00
 0.960256 1  7AF             Rx   d 8 21 52 31 30 20 4D 51 34
 1.010074 1  7AF             Rx   d 8 22 2F 31 2F 31 0C 52 31
 1.060203 1  7AF             Rx   d 8 23 35 35 20 4D 51 34 2F
 1.110044 1  7AF             Rx   d 8 24 31 2F 31 0C 52 31 35
 1.160212 1  7AF             Rx   d 8 25 36 20 4D 51 34 2F 31
 1.210433 1  7AF             Rx   d 8 26 2F 31 AA AA AA AA AA
 1.322690 1  7A7             Tx   d 8 03 22 F1 00 00 00 00 00
 1.330440 1  7AF             Rx   d 8 06 62 F1 00 31 2E 34 00
 1.449874 1  7A7             Tx   d 8 03 22 F1 87 00 00 00 00
 1.460392 1  7AF             Rx   d 8 10 0D 62 F1 87 39 36 37
 1.465665 1  7A7             Tx   d 8 30 08 0A 00 00 00 00 00
 1.510425 1  7AF             Rx   d 8 21 31 30 47 42 30 35 30
 1.630607 1  7A7             Tx   d 8 03 22 F1 8B 00 00 00 00
 1.640540 1  7AF             Rx   d 8 07 62 F1 8B 20 25 08 07
 1.759392 1  7A7             Tx   d 8 03 22 F1 8C 00 00 00 00
 1.770315 1  7AF             Rx   d 8 10 0B 62 F1 8C 90 90 90
 1.777313 1  7A7             Tx   d 8 30 08 0A 00 00 00 00 00
 1.820706 1  7AF             Rx   d 8 21 90 90 90 90 90 00 00
 1.933230 1  7A7             Tx   d 8 03 22 F1 91 00 00 00 00
 1.940502 1  7AF             Rx   d 8 07 62 F1 91 41 2E 30 30
 2.061392 1  7A7             Tx   d 8 03 22 F1 93 00 00 00 00
 2.070315 1  7AF             Rx   d 8 07 62 F1 93 42 2E 4F 4F
 2.190171 1  7A7             Tx   d 8 03 22 F1 C1 00 00 00 00
 2.201305 1  7AF             Rx   d 8 03 7F 22 22 00 00 00 00
 2.318905 1  7A7             Tx   d 8 03 22 F1 95 00 00 00 00
 2.330403 1  7AF             Rx   d 8 07 62 F1 95 41 2E 30 30
 2.447184 1  7A7             Tx   d 8 03 22 F1 A0 00 00 00 00
 2.450283 1  7AF             Rx   d 8 07 62 F1 A0 41 2E 30 30
 2.571459 1  7A7             Tx   d 8 03 22 F1 A1 00 00 00 00
 2.580538 1  7AF             Rx   d 8 07 62 F1 A1 54 45 4C 45
 2.699989 1  7A7             Tx   d 8 03 22 F1 B0 00 00 00 00
 2.710587 1  7AF             Rx   d 8 04 62 F1 B0 01 00 00 00
 2.829503 1  7A7             Tx   d 8 03 22 F1 B1 00 00 00 00
 2.840663 1  7AF             Rx   d 8 07 62 F1 B1 41 2E 30 30
 2.959093 1  7A7             Tx   d 8 03 22 F1 DD 00 00 00 00
 2.970446 1  7AF             Rx   d 8 07 F1 DD 41 30 30 30 31
 3.088981 1  7A7             Tx   d 8 03 22 ED 90 00 00 00 00
 3.100649 1  7AF             Rx   d 8 10 10 62 ED 90 E2 00 00
 3.108793 1  7A7             Tx   d 8 30 08 0A 00 00 00 00 00
 3.160619 1  7AF             Rx   d 8 21 00 00 00 00 04 00 00
 3.210711 1  7AF             Rx   d 8 22 00 00 00 00 00 00 00
 3.325414 1  7A7             Tx   d 8 03 22 B6 02 00 00 00 00
 3.330671 1  7AF             Rx   d 8 10 08 62 B6 02 80 00 00
 3.337300 1  7A7             Tx   d 8 30 08 0A 00 00 00 00 00
 3.380910 1  7AF             Rx   d 8 21 00 9B 00 00 00 00 00
 3.494340 1  7A7             Tx   d 8 03 22 B6 03 00 00 00 00
 3.500690 1  7AF             Rx   d 8 10 09 62 B6 03 F2 A0 00
 3.506845 1  7A7             Tx   d 8 30 08 0A 00 00 00 00 00
 3.550641 1  7AF             Rx   d 8 21 00 00 00 00 00 00 00
 3.662629 1  7A7             Tx   d 8 03 22 B6 04 00 00 00 00
 3.670613 1  7AF             Rx   d 8 10 0A 62 B6 04 E5 FC 01
 3.677415 1  7A7             Tx   d 8 30 08 0A 00 00 00 00 00
 3.720964 1  7AF             Rx   d 8 21 01 00 20 00 00 00 00
 3.833948 1  7A7             Tx   d 8 03 22 B6 05 00 00 00 00
 3.840718 1  7AF             Rx   d 8 10 09 62 B6 05 FF FF 00
 3.847616 1  7A7             Tx   d 8 30 08 0A 00 00 00 00 00
 3.890759 1  7AF             Rx   d 8 21 00 00 00 00 00 00 00
 4.004027 1  7A7             Tx   d 8 03 22 F1 7D 00 00 00 00
 4.010957 1  7AF             Rx   d 8 03 7F 22 12 00 00 00 00
 4.130747 1  7A7             Tx   d 8 03 22 F1 7F 00 00 00 00
 4.140849 1  7AF             Rx   d 8 03 7F 22 12 00 00 00 00
 4.262953 1  7A7             Tx   d 8 03 22 F1 97 00 00 00 00
 4.270601 1  7AF             Rx   d 8 07 62 F1 97 53 57 52 43
 4.384171 1  7A7             Tx   d 8 03 22 F1 01 00 00 00 00
 4.390665 1  7AF             Rx   d 8 03 7F 22 12 00 00 00 00
 4.513153 1  7A7             Tx   d 8 04 22 F1 00 32 00 00 00
 4.520856 1  7AF             Rx   d 8 03 7F 22 13 00 00 00 00
 4.633014 1  7A7             Tx   d 8 03 22 F1 88 00 00 00 00
 4.640916 1  7AF             Rx   d 8 03 7F 22 12 00 00 00 00
 4.762503 1  7A7             Tx   d 8 04 22 F1 87 21 00 00 00
 4.770629 1  7AF             Rx   d 8 03 7F 22 13 00 00 00 00
 4.883938 1  7A7             Tx   d 8 03 22 F1 85 00 00 00 00
 4.890703 1  7AF             Rx   d 8 03 7F 22 12 00 00 00 00
 5.010608 1  7A7             Tx   d 8 04 22 F1 8B 12 00 00 00
 5.020925 1  7AF             Rx   d 8 03 7F 22 13 00 00 00 00
 5.137942 1  7A7             Tx   d 8 03 22 F1 89 00 00 00 00
 5.140983 1  7AF             Rx   d 8 03 7F 22 12 00 00 00 00
 5.263888 1  7A7             Tx   d 8 04 22 F1 8C 12 00 00 00
 5.270737 1  7AF             Rx   d 8 03 7F 22 13 00 00 00 00
 5.384732 1  7A7             Tx   d 8 03 22 F1 92 00 00 00 00
 5.390771 1  7AF             Rx   d 8 03 7F 22 12 00 00 00 00
 5.514361 1  7A7             Tx   d 8 04 22 F1 91 12 00 00 00
 5.520986 1  7AF             Rx   d 8 03 7F 22 13 00 00 00 00
 5.633928 1  7A7             Tx   d 8 03 22 F1 94 00 00 00 00
 5.641051 1  7AF             Rx   d 8 03 7F 22 12 00 00 00 00
 5.762540 1  7A7             Tx   d 8 04 22 F1 93 12 00 00 00
 5.770790 1  7AF             Rx   d 8 03 7F 22 13 00 00 00 00
 5.883951 1  7A7             Tx   d 8 03 22 F1 88 00 00 00 00
 5.890850 1  7AF             Rx   d 8 03 7F 22 12 00 00 00 00
 6.011515 1  7A7             Tx   d 8 04 22 F1 95 12 00 00 00
 6.021052 1  7AF             Rx   d 8 03 7F 22 13 00 00 00 00
 6.134420 1  7A7             Tx   d 8 03 22 F1 A5 00 00 00 00
 6.141106 1  7AF             Rx   d 8 03 7F 22 12 00 00 00 00
 6.262615 1  7A7             Tx   d 8 04 22 F1 A0 12 00 00 00
 6.270848 1  7AF             Rx   d 8 03 7F 22 13 00 00 00 00
 6.391340 1  7A7             Tx   d 8 03 22 F1 A7 00 00 00 00
 6.401862 1  7AF             Rx   d 8 03 7F 22 12 00 00 00 00
 6.519903 1  7A7             Tx   d 8 04 22 F1 A1 12 00 00 00
 6.530893 1  7AF             Rx   d 8 03 7F 22 13 00 00 00 00
 6.646701 1  7A7             Tx   d 8 03 22 F1 B5 00 00 00 00
 6.650994 1  7AF             Rx   d 8 03 7F 22 12 00 00 00 00
 6.773203 1  7A7             Tx   d 8 04 22 F1 B0 12 00 00 00
 6.781146 1  7AF             Rx   d 8 03 7F 22 13 00 00 00 00
 6.902482 1  7A7             Tx   d 8 03 22 F1 98 00 00 00 00
 6.910948 1  7AF             Rx   d 8 03 7F 22 12 00 00 00 00
 7.033849 1  7A7             Tx   d 8 04 22 F1 97 12 00 00 00
 7.041184 1  7AF             Rx   d 8 03 7F 22 13 00 00 00 00
 7.153781 1  7A7             Tx   d 8 03 22 F1 C2 00 00 00 00
 7.161227 1  7AF             Rx   d 8 03 7F 22 12 00 00 00 00
 7.285991 1  7A7             Tx   d 8 04 22 F1 C1 12 00 00 00
 7.290982 1  7AF             Rx   d 8 03 7F 22 13 00 00 00 00
 7.415323 1  7A7             Tx   d 8 03 22 F1 98 00 00 00 00
 7.421259 1  7AF             Rx   d 8 03 7F 22 12 00 00 00 00
 7.543177 1  7A7             Tx   d 8 04 22 F1 97 12 00 00 00
 7.551010 1  7AF             Rx   d 8 03 7F 22 13 00 00 00 00
 7.663737 1  7A7             Tx   d 8 03 22 F1 B2 00 00 00 00
 7.671082 1  7AF             Rx   d 8 03 7F 22 12 00 00 00 00
 7.793397 1  7A7             Tx   d 8 04 22 F1 B1 12 00 00 00
 7.802008 1  7AF             Rx   d 8 03 7F 22 13 00 00 00 00
 7.922874 1  7A7             Tx   d 8 03 22 F1 EE 00 00 00 00
 7.931082 1  7AF             Rx   d 8 03 7F 22 12 00 00 00 00
 8.050708 1  7A7             Tx   d 8 04 22 F1 EF 12 00 00 00
 8.061310 1  7AF             Rx   d 8 03 7F 22 13 00 00 00 00
 8.173987 1  7A7             Tx   d 8 03 22 ED 91 00 00 00 00
 8.181315 1  7AF             Rx   d 8 03 7F 22 12 00 00 00 00
 8.302666 1  7A7             Tx   d 8 04 22 ED 90 12 00 00 00
 8.311094 1  7AF             Rx   d 8 03 7F 22 13 00 00 00 00
 8.433084 1  7A7             Tx   d 8 03 22 F1 7E 00 00 00 00
 8.441397 1  7AF             Rx   d 8 03 7F 22 12 00 00 00 00
 8.562488 1  7A7             Tx   d 8 04 22 F1 7D 12 00 00 00
 8.571155 1  7AF             Rx   d 8 03 7F 22 13 00 00 00 00
 8.684878 1  7A7             Tx   d 8 03 22 F1 DE 00 00 00 00
 8.691215 1  7AF             Rx   d 8 03 7F 22 12 00 00 00 00
 8.811917 1  7A7             Tx   d 8 04 22 F1 DD 12 00 00 00
 8.821410 1  7AF             Rx   d 8 03 7F 22 13 00 00 00 00
 8.934280 1  7A7             Tx   d 8 03 22 B6 07 00 00 00 00
 8.941475 1  7AF             Rx   d 8 03 7F 22 12 00 00 00 00
 9.062784 1  7A7             Tx   d 8 04 22 B6 02 12 00 00 00
 9.071223 1  7AF             Rx   d 8 03 7F 22 13 00 00 00 00
 9.185154 1  7A7             Tx   d 8 03 22 B6 06 00 00 00 00
 9.191216 1  7AF             Rx   d 8 03 7F 22 12 00 00 00 00
 9.315330 1  7A7             Tx   d 8 04 22 B6 03 12 00 00 00
 9.321475 1  7AF             Rx   d 8 03 7F 22 13 00 00 00 00
 9.434798 1  7A7             Tx   d 8 03 22 B6 07 00 00 00 00
 9.441515 1  7AF             Rx   d 8 03 7F 22 12 00 00 00 00
 9.562077 1  7A7             Tx   d 8 04 22 B6 04 12 00 00 00
 9.571282 1  7AF             Rx   d 8 03 7F 22 13 00 00 00 00
 9.685372 1  7A7             Tx   d 8 03 22 B6 08 00 00 00 00
 9.691393 1  7AF             Rx   d 8 03 7F 22 12 00 00 00 00
 9.812844 1  7A7             Tx   d 8 04 22 B6 05 12 00 00 00
 9.821544 1  7AF             Rx   d 8 03 7F 22 13 00 00 00 00
 10.071138 1  7A7             Tx   d 8 02 10 03 00 00 00 00 00
 10.081668 1  7AF             Rx   d 8 06 50 03 00 32 01 F4 00
 10.144247 1  7A7             Tx   d 8 03 22 F1 EF 00 00 00 00
 10.151349 1  7AF             Rx   d 8 10 2B 62 F1 EF 07 A7 0B
 10.155816 1  7A7             Tx   d 8 30 08 0A 00 00 00 00 00
 10.202238 1  7AF             Rx   d 8 21 52 31 30 20 4D 51 34
 10.251285 1  7AF             Rx   d 8 22 2F 31 2F 31 0C 52 31
 10.301547 1  7AF             Rx   d 8 23 35 35 20 4D 51 34 2F
 10.351345 1  7AF             Rx   d 8 24 31 2F 31 0C 52 31 35
 10.402293 1  7AF             Rx   d 8 25 36 20 4D 51 34 2F 31
 10.451639 1  7AF             Rx   d 8 26 2F 31 AA AA AA AA AA
 10.566986 1  7A7             Tx   d 8 03 22 F1 00 00 00 00 00
 10.571503 1  7AF             Rx   d 8 06 62 F1 00 31 2E 34 00
 10.695414 1  7A7             Tx   d 8 03 22 F1 87 00 00 00 00
 10.701582 1  7AF             Rx   d 8 10 0D 62 F1 87 39 36 37
 10.706131 1  7A7             Tx   d 8 30 08 0A 00 00 00 00 00
 10.752197 1  7AF             Rx   d 8 21 31 30 47 42 30 35 30
 10.865493 1  7A7             Tx   d 8 03 22 F1 8B 00 00 00 00
 10.871451 1  7AF             Rx   d 8 07 62 F1 8B 20 25 08 07
 10.985238 1  7A7             Tx   d 8 03 22 F1 8C 00 00 00 00
 10.991303 1  7AF             Rx   d 8 10 0B 62 F1 8C 90 90 90
 10.995849 1  7A7             Tx   d 8 30 08 0A 00 00 00 00 00
 11.041914 1  7AF             Rx   d 8 21 90 90 90 90 90 00 00
 11.160202 1  7A7             Tx   d 8 03 22 F1 91 00 00 00 00
 11.171554 1  7AF             Rx   d 8 07 62 F1 91 41 2E 30 30
 11.285238 1  7A7             Tx   d 8 03 22 F1 93 00 00 00 00
 11.291538 1  7AF             Rx   d 8 07 62 F1 93 42 2E 4F 4F
 11.416396 1  7A7             Tx   d 8 03 22 F1 C1 00 00 00 00
 11.421768 1  7AF             Rx   d 8 03 7F 22 22 00 00 00 00
 11.542782 1  7A7             Tx   d 8 03 22 F1 95 00 00 00 00
 11.551539 1  7AF             Rx   d 8 07 62 F1 95 41 2E 30 30
 11.665756 1  7A7             Tx   d 8 03 22 F1 A0 00 00 00 00
 11.671636 1  7AF             Rx   d 8 07 62 F1 A0 41 2E 30 30
 11.794051 1  7A7             Tx   d 8 03 22 F1 A1 00 00 00 00
 11.802522 1  7AF             Rx   d 8 07 62 F1 A1 54 45 4C 45
 11.922551 1  7A7             Tx   d 8 03 22 F1 B0 00 00 00 00
 11.931607 1  7AF             Rx   d 8 04 62 F1 B0 01 00 00 00
 12.044998 1  7A7             Tx   d 8 03 22 F1 B1 00 00 00 00
 12.051741 1  7AF             Rx   d 8 07 62 F1 B1 41 2E 30 30
 12.176492 1  7A7             Tx   d 8 03 22 F1 97 00 00 00 00
 12.181845 1  7AF             Rx   d 8 07 62 F1 97 53 57 52 43
 12.303041 1  7A7             Tx   d 8 03 22 F1 DD 00 00 00 00
 12.311652 1  7AF             Rx   d 8 07 F1 DD 41 30 30 30 31
 12.425275 1  7A7             Tx   d 8 03 22 ED 90 00 00 00 00
 12.431635 1  7AF             Rx   d 8 10 10 62 ED 90 E2 00 00
 12.442855 1  7A7             Tx   d 8 30 08 0A 00 00 00 00 00
 12.491601 1  7AF             Rx   d 8 21 00 00 00 00 04 00 00
 12.542092 1  7AF             Rx   d 8 22 00 00 00 00 00 00 00
 12.654731 1  7A7             Tx   d 8 03 22 B6 02 00 00 00 00
 12.661927 1  7AF             Rx   d 8 10 08 62 B6 02 80 00 00
 12.666451 1  7A7             Tx   d 8 30 08 0A 00 00 00 00 00
 12.711861 1  7AF             Rx   d 8 21 00 9B 00 00 00 00 00
 12.825810 1  7A7             Tx   d 8 03 22 B6 03 00 00 00 00
 12.831693 1  7AF             Rx   d 8 10 09 62 B6 03 F2 A0 00
 12.836132 1  7A7             Tx   d 8 30 08 0A 00 00 00 00 00
 12.882224 1  7AF             Rx   d 8 21 00 00 00 00 00 00 00
 12.996511 1  7A7             Tx   d 8 03 22 B6 04 00 00 00 00
 13.002643 1  7AF             Rx   d 8 10 0A 62 B6 04 E5 FC 01
 13.006800 1  7A7             Tx   d 8 30 08 0A 00 00 00 00 00
 13.051932 1  7AF             Rx   d 8 21 01 00 20 00 00 00 00
 13.164133 1  7A7             Tx   d 8 03 22 B6 05 00 00 00 00
 13.171651 1  7AF             Rx   d 8 10 09 62 B6 05 FF FF 00
 13.176521 1  7A7             Tx   d 8 30 08 0A 00 00 00 00 00
 13.222196 1  7AF             Rx   d 8 21 00 00 00 00 00 00 00
 13.334596 1  7A7             Tx   d 8 03 22 F1 7D 00 00 00 00
 13.342022 1  7AF             Rx   d 8 03 7F 22 12 00 00 00 00
 13.455020 1  7A7             Tx   d 8 03 22 F1 7F 00 00 00 00
 13.462055 1  7AF             Rx   d 8 03 7F 22 12 00 00 00 00
 13.585534 1  7A7             Tx   d 8 03 22 F1 01 00 00 00 00
 13.591855 1  7AF             Rx   d 8 03 7F 22 12 00 00 00 00
 13.705263 1  7A7             Tx   d 8 04 22 F1 00 32 00 00 00
 13.711798 1  7AF             Rx   d 8 03 7F 22 13 00 00 00 00
 13.834625 1  7A7             Tx   d 8 03 22 F1 88 00 00 00 00
 13.842086 1  7AF             Rx   d 8 03 7F 22 12 00 00 00 00
 13.962273 1  7A7             Tx   d 8 04 22 F1 87 21 00 00 00
 13.971827 1  7AF             Rx   d 8 03 7F 22 13 00 00 00 00
 14.091525 1  7A7             Tx   d 8 03 22 F1 85 00 00 00 00
 14.102123 1  7AF             Rx   d 8 03 7F 22 12 00 00 00 00
 14.221167 1  7A7             Tx   d 8 04 22 F1 8B 12 00 00 00
 14.231897 1  7AF             Rx   d 8 03 7F 22 13 00 00 00 00
 14.345123 1  7A7             Tx   d 8 03 22 F1 89 00 00 00 00
 14.352056 1  7AF             Rx   d 8 03 7F 22 12 00 00 00 00
 14.473305 1  7A7             Tx   d 8 04 22 F1 8C 12 00 00 00
 14.482225 1  7AF             Rx   d 8 03 7F 22 13 00 00 00 00
 14.601470 1  7A7             Tx   d 8 03 22 F1 99 00 00 00 00
 14.612005 1  7AF             Rx   d 8 03 7F 22 12 00 00 00 00
 14.725526 1  7A7             Tx   d 8 04 22 F1 91 12 00 00 00
 14.732046 1  7AF             Rx   d 8 03 7F 22 13 00 00 00 00
 14.852000 1  7A7             Tx   d 8 03 22 F1 94 00 00 00 00
 14.862228 1  7AF             Rx   d 8 03 7F 22 12 00 00 00 00
 14.982848 1  7A7             Tx   d 8 04 22 F1 93 12 00 00 00
 14.991984 1  7AF             Rx   d 8 03 7F 22 13 00 00 00 00
 15.106330 1  7A7             Tx   d 8 03 22 F1 88 00 00 00 00
 15.111999 1  7AF             Rx   d 8 03 7F 22 12 00 00 00 00
 15.233450 1  7A7             Tx   d 8 04 22 F1 8B 12 00 00 00
 15.242419 1  7AF             Rx   d 8 03 7F 22 13 00 00 00 00
 15.363332 1  7A7             Tx   d 8 03 22 F1 A5 00 00 00 00
 15.372042 1  7AF             Rx   d 8 03 7F 22 12 00 00 00 00
 15.493391 1  7A7             Tx   d 8 04 22 F1 A0 12 00 00 00
 15.502275 1  7AF             Rx   d 8 03 7F 22 13 00 00 00 00
 15.614770 1  7A7             Tx   d 8 03 22 F1 A7 00 00 00 00
 15.622266 1  7AF             Rx   d 8 03 7F 22 12 00 00 00 00
 15.746645 1  7A7             Tx   d 8 04 22 F1 A1 12 00 00 00
 15.752115 1  7AF             Rx   d 8 03 7F 22 13 00 00 00 00
 15.873539 1  7A7             Tx   d 8 03 22 F1 B5 00 00 00 00
 15.882412 1  7AF             Rx   d 8 03 7F 22 12 00 00 00 00
 16.001263 1  7A7             Tx   d 8 04 22 F1 B0 12 00 00 00
 16.012160 1  7AF             Rx   d 8 03 7F 22 13 00 00 00 00
 16.125213 1  7A7             Tx   d 8 03 22 F1 98 00 00 00 00
 16.132469 1  7AF             Rx   d 8 03 7F 22 12 00 00 00 00
 16.253961 1  7A7             Tx   d 8 04 22 F1 97 12 00 00 00
 16.262367 1  7AF             Rx   d 8 03 7F 22 13 00 00 00 00
 16.383000 1  7A7             Tx   d 8 03 22 F1 C2 00 00 00 00
 16.392195 1  7AF             Rx   d 8 03 7F 22 12 00 00 00 00
 16.505937 1  7A7             Tx   d 8 04 22 F1 C1 12 00 00 00
 16.512251 1  7AF             Rx   d 8 03 7F 22 13 00 00 00 00
 16.633884 1  7A7             Tx   d 8 03 22 F1 98 00 00 00 00
 16.642454 1  7AF             Rx   d 8 03 7F 22 12 00 00 00 00
 16.762522 1  7A7             Tx   d 8 04 22 F1 97 12 00 00 00
 16.772154 1  7AF             Rx   d 8 03 7F 22 13 00 00 00 00
 16.885758 1  7A7             Tx   d 8 03 22 F1 B2 00 00 00 00
 16.892315 1  7AF             Rx   d 8 03 7F 22 12 00 00 00 00
 17.014350 1  7A7             Tx   d 8 04 22 F1 B1 12 00 00 00
 17.022408 1  7AF             Rx   d 8 03 7F 22 13 00 00 00 00
 17.144888 1  7A7             Tx   d 8 03 22 F1 EE 00 00 00 00
 17.152279 1  7AF             Rx   d 8 03 7F 22 12 00 00 00 00
 17.270597 1  7A7             Tx   d 8 04 22 F1 EF 12 00 00 00
 17.282573 1  7AF             Rx   d 8 03 7F 22 13 00 00 00 00
 17.395715 1  7A7             Tx   d 8 03 22 ED 91 00 00 00 00
 17.403410 1  7AF             Rx   d 8 03 7F 22 12 00 00 00 00
 17.524574 1  7A7             Tx   d 8 04 22 ED 90 12 00 00 00
 17.532320 1  7AF             Rx   d 8 03 7F 22 13 00 00 00 00
 17.657223 1  7A7             Tx   d 8 03 22 F1 7E 00 00 00 00
 17.662599 1  7AF             Rx   d 8 03 7F 22 12 00 00 00 00
 17.778365 1  7A7             Tx   d 8 04 22 F1 7D 12 00 00 00
 17.782505 1  7AF             Rx   d 8 03 7F 22 13 00 00 00 00
 17.901857 1  7A7             Tx   d 8 03 22 F1 DE 00 00 00 00
 17.912389 1  7AF             Rx   d 8 03 7F 22 12 00 00 00 00
 18.025623 1  7A7             Tx   d 8 04 22 F1 DD 12 00 00 00
 18.032456 1  7AF             Rx   d 8 03 7F 22 13 00 00 00 00
 18.153549 1  7A7             Tx   d 8 03 22 B6 06 00 00 00 00
 18.162646 1  7AF             Rx   d 8 03 7F 22 12 00 00 00 00
 18.281237 1  7A7             Tx   d 8 04 22 B6 02 12 00 00 00
 18.292412 1  7AF             Rx   d 8 03 7F 22 13 00 00 00 00
 18.405415 1  7A7             Tx   d 8 03 22 B6 07 00 00 00 00
 18.412753 1  7AF             Rx   d 8 03 7F 22 12 00 00 00 00
 18.533552 1  7A7             Tx   d 8 04 22 B6 03 12 00 00 00
 18.542671 1  7AF             Rx   d 8 03 7F 22 13 00 00 00 00
 18.661679 1  7A7             Tx   d 8 03 22 B6 08 00 00 00 00
 18.672465 1  7AF             Rx   d 8 03 7F 22 12 00 00 00 00
 18.785026 1  7A7             Tx   d 8 04 22 B6 04 12 00 00 00
 18.792514 1  7AF             Rx   d 8 03 7F 22 13 00 00 00 00
 18.914355 1  7A7             Tx   d 8 03 22 B6 09 00 00 00 00
 18.922670 1  7AF             Rx   d 8 03 7F 22 12 00 00 00 00
 19.044137 1  7A7             Tx   d 8 04 22 B6 05 12 00 00 00
 19.052418 1  7AF             Rx   d 8 03 7F 22 13 00 00 00 00
 19.306912 1  7A7             Tx   d 8 02 10 01 00 00 00 00 00
 19.312554 1  7AF             Rx   d 8 02 50 01 00 00 00 00 00
 19.374656 1  7A7             Tx   d 8 03 19 02 08 00 00 00 00
 19.382782 1  7AF             Rx   d 8 07 59 02 08 96 03 00 08
 19.445635 1  7A7             Tx   d 8 03 19 02 01 00 00 00 00
 24.480708 1  7A7             Tx   d 8 03 19 02 01 00 00 00 00
 29.515892 1  7A7             Tx   d 8 03 19 05 01 00 00 00 00
 34.620172 1  7A7             Tx   d 8 03 19 01 08 00 00 00 00
 34.624782 1  7AF             Rx   d 8 07 59 02 08 96 03 00 08
 34.687261 1  7A7             Tx   d 8 03 19 01 01 00 00 00 00
 39.742018 1  7A7             Tx   d 8 03 19 0A 00 00 00 00 00
 44.913946 1  7A7             Tx   d 8 02 10 03 00 00 00 00 00
 44.926086 1  7AF             Rx   d 8 06 50 03 00 32 01 F4 00
 44.989367 1  7A7             Tx   d 8 03 19 02 08 00 00 00 00
 44.995839 1  7AF             Rx   d 8 07 59 02 08 96 03 00 08
 45.061143 1  7A7             Tx   d 8 03 19 02 01 00 00 00 00
 50.094523 1  7A7             Tx   d 8 03 19 01 08 00 00 00 00
 50.106764 1  7AF             Rx   d 8 07 59 02 08 96 03 00 08
 50.175388 1  7A7             Tx   d 8 03 19 01 01 00 00 00 00
 55.205178 1  7A7             Tx   d 8 03 19 0A 00 00 00 00 00
 60.379953 1  7A7             Tx   d 8 02 10 01 00 00 00 00 00
 60.388129 1  7AF             Rx   d 8 02 50 01 00 00 00 00 00
 60.461437 1  7A7             Tx   d 8 02 27 11 00 00 00 00 00
 60.468141 1  7AF             Rx   d 8 03 7F 27 22 00 00 00 00
 60.743163 1  7A7             Tx   d 8 02 10 03 00 00 00 00 00
 60.748141 1  7AF             Rx   d 8 06 50 03 00 32 01 F4 00
 60.816568 1  7A7             Tx   d 8 02 27 11 00 00 00 00 00
 60.828165 1  7AF             Rx   d 8 10 0A 67 11 07 AB E4 88
 60.840214 1  7A7             Tx   d 8 30 08 0A 00 00 00 00 00
 60.888412 1  7AF             Rx   d 8 21 99 63 34 47 00 00 00
 78.554373 1  ErrorFrame
 78.554629 1  ErrorFrame
 78.554852 1  ErrorFrame
 78.555105 1  7A7             Tx   d 8 02 27 31 00 00 00 00 00
 80.703161 1  7A7             Tx   d 8 02 27 57 00 00 00 00 00
 80.706227 1  7AF             Rx   d 8 03 7F 27 12 00 00 00 00
 80.955289 1  7A7             Tx   d 8 02 10 01 00 00 00 00 00
 80.967027 1  7AF             Rx   d 8 02 50 01 00 00 00 00 00
 81.166643 1  7A7             Tx   d 8 02 10 02 00 00 00 00 00
 81.176178 1  7AF             Rx   d 8 03 7F 10 22 00 00 00 00
 81.247137 1  7A7             Tx   d 8 03 19 02 08 00 00 00 00
 81.256090 1  7AF             Rx   d 8 07 59 02 08 96 03 00 08
 81.318373 1  7A7             Tx   d 8 03 19 02 01 00 00 00 00
 86.358479 1  7A7             Tx   d 8 03 19 01 08 00 00 00 00
 86.367720 1  7AF             Rx   d 8 07 59 02 08 96 03 00 08
 86.431855 1  7A7             Tx   d 8 03 19 01 01 00 00 00 00
 91.462438 1  7A7             Tx   d 8 03 19 0A 00 00 00 00 00
End TriggerBlock
