date Mon Dec 08 10:52:24.527 AM 2025
base hex  timestamps absolute
internal events logged
Begin Triggerblock Mon Dec 08 10:52:24.554 AM 2025
 0.000000 Start of measurement
 0.000000 1  7A6             Tx   d 8 03 22 F1 DD 00 00 00 00
 0.010387 1  7AE             Rx   d 8 10 10 62 F1 DD 41 30 30
 0.410936 1  7A6             Tx   d 8 30 08 0A 00 00 00 00 00
 0.525718 1  7A6             Tx   d 8 03 22 F1 00 00 00 00 00
 0.530385 1  7AE             Rx   d 8 06 62 F1 00 31 2E 30 AA
 0.651138 1  7A6             Tx   d 8 03 22 F1 8B 00 00 00 00
 0.660489 1  7AE             Rx   d 8 07 62 F1 8B 20 25 05 26
 0.786160 1  7A6             Tx   d 8 03 22 F1 8C 00 00 00 00
 0.790550 1  7AE             Rx   d 8 10 0B 62 F1 8C FF FF FF
 0.798787 1  7A6             Tx   d 8 30 08 0A 00 00 00 00 00
 0.810355 1  7AE             Rx   d 8 21 FF FF FF FF FF AA AA
 0.937997 1  7A6             Tx   d 8 03 22 F1 93 00 00 00 00
 0.940377 1  7AE             Rx   d 8 07 62 F1 93 41 2E 30 30
 1.204648 1  7A6             Tx   d 8 02 10 01 00 00 00 00 00
 1.210337 1  7AE             Rx   d 8 06 50 01 00 32 01 F4 AA
 1.419167 1  7A6             Tx   d 8 02 10 02 00 00 00 00 00
 1.430392 1  7AE             Rx   d 8 03 7F 10 22 AA AA AA AA
 1.736195 1  7A6             Tx   d 8 02 10 03 00 00 00 00 00
 1.740327 1  7AE             Rx   d 8 06 50 03 00 32 01 F4 AA
 1.969141 1  7A6             Tx   d 8 02 10 FF 00 00 00 00 00
 1.980376 1  7AE             Rx   d 8 03 7F 10 12 AA AA AA AA
 2.181412 1  7A6             Tx   d 8 01 10 00 00 00 00 00 00
 2.190395 1  7AE             Rx   d 8 03 7F 10 13 AA AA AA AA
 2.316802 1  7A6             Tx   d 8 02 11 01 00 00 00 00 00
 2.320348 1  7AE             Rx   d 8 03 7F 11 22 AA AA AA AA
 3.447628 1  7A6             Tx   d 8 02 11 08 00 00 00 00 00
 3.450297 1  7AE             Rx   d 8 03 7F 11 12 AA AA AA AA
 3.570048 1  7A6             Tx   d 8 01 11 00 00 00 00 00 00
 3.580338 1  7AE             Rx   d 8 03 7F 11 13 AA AA AA AA
 3.645007 1  7A6             Tx   d 8 03 19 02 08 00 00 00 00
 3.650344 1  7AE             Rx   d 8 03 59 02 00 AA AA AA AA
 3.717159 1  7A6             Tx   d 8 03 19 0F 08 00 00 00 00
 3.720323 1  7AE             Rx   d 8 03 7F 19 12 AA AA AA AA
 3.795172 1  7A6             Tx   d 8 03 19 0E 08 00 00 00 00
 3.800367 1  7AE             Rx   d 8 03 7F 19 12 AA AA AA AA
 3.865541 1  7A6             Tx   d 8 03 19 FF 08 00 00 00 00
 3.870399 1  7AE             Rx   d 8 03 7F 19 12 AA AA AA AA
 4.149713 1  7A6             Tx   d 8 02 10 01 00 00 00 00 00
 4.160366 1  7AE             Rx   d 8 06 50 01 00 32 01 F4 AA
 4.234060 1  7A6             Tx   d 8 03 19 02 08 00 00 00 00
 4.243902 1  7AE             Rx   d 8 03 59 02 00 AA AA AA AA
 4.314169 1  7A6             Tx   d 8 04 14 FF FF FF 00 00 00
 4.320554 1  7AE             Rx   d 8 01 54 AA AA AA AA AA AA
 4.394089 1  7A6             Tx   d 8 03 22 B3 02 00 00 00 00
 4.400292 1  7AE             Rx   d 8 10 09 62 B3 02 FF FF 00
 4.405625 1  7A6             Tx   d 8 30 08 0A 00 00 00 00 00
 4.420353 1  7AE             Rx   d 8 21 00 00 8E AA AA AA AA
 4.538816 1  7A6             Tx   d 8 03 22 B3 03 00 00 00 00
 4.540352 1  7AE             Rx   d 8 10 0B 62 B3 03 FF FF FF
 4.548459 1  7A6             Tx   d 8 30 08 0A 00 00 00 00 00
 4.560414 1  7AE             Rx   d 8 21 01 02 00 00 01 AA AA
 4.687023 1  7A6             Tx   d 8 03 22 F1 EF 00 00 00 00
 4.690396 1  7AE             Rx   d 8 10 2B 62 F1 EF 07 A6 0B
 4.698589 1  7A6             Tx   d 8 30 08 0A 00 00 00 00 00
 4.720350 1  7AE             Rx   d 8 21 52 31 30 20 4D 51 34
 4.740370 1  7AE             Rx   d 8 22 2F 31 2F 30 0C 52 31
 4.760277 1  7AE             Rx   d 8 23 35 35 20 4D 51 34 2F
 4.780307 1  7AE             Rx   d 8 24 31 2F 30 0C 52 31 35
 4.799847 1  7AE             Rx   d 8 25 36 20 4D 51 34 2F 31
 4.819848 1  7AE             Rx   d 8 26 2F 30 AA AA AA AA AA
 4.937909 1  7A6             Tx   d 8 03 22 F1 00 00 00 00 00
 4.939923 1  7AE             Rx   d 8 06 62 F1 00 31 2E 30 AA
 5.070869 1  7A6             Tx   d 8 03 22 F1 87 00 00 00 00
 5.080038 1  7AE             Rx   d 8 10 0D 62 F1 87 39 33 34
 5.089465 1  7A6             Tx   d 8 30 08 0A 00 00 00 00 00
 5.119864 1  7AE             Rx   d 8 21 44 38 47 42 35 31 30
 5.261817 1  7A6             Tx   d 8 03 22 F1 8B 00 00 00 00
 5.261884 1  ErrorFrame
 5.269843 1  7AE             Rx   d 8 07 62 F1 8B 20 25 05 26
 5.395118 1  7A6             Tx   d 8 03 22 F1 8C 00 00 00 00
 5.399853 1  7AE             Rx   d 8 10 0B 62 F1 8C FF FF FF
 5.408605 1  7A6             Tx   d 8 30 08 0A 00 00 00 00 00
 5.419837 1  7AE             Rx   d 8 21 FF FF FF FF FF AA AA
 5.543774 1  7A6             Tx   d 8 03 22 F1 91 00 00 00 00
 7.675728 1  ErrorFrame
 7.675805 1  ErrorFrame
 7.675817 1  ErrorFrame
 7.675981 1  ErrorFrame
 7.676190 1  ErrorFrame
 7.676454 1  ErrorFrame
 7.676473 1  ErrorFrame
 7.676698 1  ErrorFrame
 7.676990 1  ErrorFrame
 7.677236 1  ErrorFrame
 7.677499 1  ErrorFrame
 7.677760 1  ErrorFrame
 7.678016 1  ErrorFrame
 7.678294 1  ErrorFrame
 7.678574 1  ErrorFrame
 7.678822 1  ErrorFrame
 7.679110 1  ErrorFrame
 7.679352 1  ErrorFrame
 7.679621 1  ErrorFrame
 7.679891 1  ErrorFrame
 7.680156 1  ErrorFrame
 7.680405 1  ErrorFrame
 7.680662 1  ErrorFrame
 7.680921 1  ErrorFrame
 7.681188 1  ErrorFrame
 7.681454 1  ErrorFrame
 7.681714 1  ErrorFrame
 7.681987 1  7A6             Tx   d 8 03 22 F1 93 00 00 00 00
 7.696799 1  7AE             Rx   d 8 07 62 F1 93 41 2E 30 30
 8.357103 1  7A6             Tx   d 8 03 22 F1 C1 00 00 00 00
 8.363149 1  7AE             Rx   d 8 03 7F 22 22 AA AA AA AA
 8.537711 1  7A6             Tx   d 8 03 22 F1 C2 00 00 00 00
 8.543222 1  7AE             Rx   d 8 03 7F 22 12 AA AA AA AA
 8.661283 1  7A6             Tx   d 8 03 22 F1 95 00 00 00 00
 8.663226 1  7AE             Rx   d 8 07 62 F1 95 41 2E 30 30
 8.793314 1  7A6             Tx   d 8 03 22 F1 A0 00 00 00 00
 8.793360 1  ErrorFrame
 8.813186 1  7AE             Rx   d 8 07 62 F1 A0 41 2E 30 30
 8.932479 1  7A6             Tx   d 8 03 22 F1 A1 00 00 00 00
 8.943383 1  7AE             Rx   d 8 07 62 F1 A1 53 31 31 30
 9.069076 1  7A6             Tx   d 8 03 22 F1 B0 00 00 00 00
 9.073201 1  7AE             Rx   d 8 04 62 F1 B0 01 AA AA AA
 9.200279 1  7A6             Tx   d 8 03 22 F1 B1 00 00 00 00
 9.213118 1  7AE             Rx   d 8 07 62 F1 B1 41 2E 30 30
 9.336894 1  7A6             Tx   d 8 03 22 F1 DD 00 00 00 00
 9.343188 1  7AE             Rx   d 8 10 10 62 F1 DD 41 30 30
 9.349681 1  7A6             Tx   d 8 30 08 0A 00 00 00 00 00
 9.363305 1  7AE             Rx   d 8 21 30 30 00 00 00 00 00
 9.383218 1  7AE             Rx   d 8 22 00 00 00 AA AA AA AA
 9.508840 1  7A6             Tx   d 8 03 22 F1 97 00 00 00 00
 9.513160 1  7AE             Rx   d 8 07 62 F1 97 4D 46 53 57
 9.780492 1  7A6             Tx   d 8 02 10 03 00 00 00 00 00
 9.783271 1  7AE             Rx   d 8 06 50 03 00 32 01 F4 AA
 9.849474 1  7A6             Tx   d 8 03 19 02 08 00 00 00 00
 9.853149 1  7AE             Rx   d 8 03 59 02 00 AA AA AA AA
 9.924865 1  7A6             Tx   d 8 04 14 FF FF FF 00 00 00
 9.933336 1  7AE             Rx   d 8 01 54 AA AA AA AA AA AA
 10.003068 1  7A6             Tx   d 8 03 22 B3 02 00 00 00 00
 10.013185 1  7AE             Rx   d 8 10 09 62 B3 02 FF FF 00
 10.021013 1  7A6             Tx   d 8 30 08 0A 00 00 00 00 00
 10.033147 1  7AE             Rx   d 8 21 00 00 8E AA AA AA AA
 10.158514 1  7A6             Tx   d 8 03 22 B3 03 00 00 00 00
 10.163157 1  7AE             Rx   d 8 10 0B 62 B3 03 FF FF FF
 10.168893 1  7A6             Tx   d 8 30 08 0A 00 00 00 00 00
 10.183273 1  7AE             Rx   d 8 21 01 02 00 00 01 AA AA
 10.314258 1  7A6             Tx   d 8 03 22 F1 EF 00 00 00 00
 10.323188 1  7AE             Rx   d 8 10 2B 62 F1 EF 07 A6 0B
 10.329247 1  7A6             Tx   d 8 30 08 0A 00 00 00 00 00
 10.343233 1  7AE             Rx   d 8 21 52 31 30 20 4D 51 34
 10.363174 1  7AE             Rx   d 8 22 2F 31 2F 30 0C 52 31
 10.383202 1  7AE             Rx   d 8 23 35 35 20 4D 51 34 2F
 10.413545 1  7AE             Rx   d 8 24 31 2F 30 0C 52 31 35
 10.433156 1  7AE             Rx   d 8 25 36 20 4D 51 34 2F 31
 10.453195 1  7AE             Rx   d 8 26 2F 30 AA AA AA AA AA
 10.577646 1  7A6             Tx   d 8 03 22 F1 00 00 00 00 00
 10.583171 1  7AE             Rx   d 8 06 62 F1 00 31 2E 30 AA
 10.699717 1  7A6             Tx   d 8 03 22 F1 87 00 00 00 00
 10.703152 1  7AE             Rx   d 8 10 0D 62 F1 87 39 33 34
 10.713732 1  7A6             Tx   d 8 30 08 0A 00 00 00 00 00
 10.733142 1  7AE             Rx   d 8 21 44 38 47 42 35 31 30
 10.864537 1  7A6             Tx   d 8 03 22 F1 8B 00 00 00 00
 10.873337 1  7AE             Rx   d 8 07 62 F1 8B 20 25 05 26
 11.017944 1  7A6             Tx   d 8 03 22 F1 8C 00 00 00 00
 11.023238 1  7AE             Rx   d 8 10 0B 62 F1 8C FF FF FF
 11.033800 1  7A6             Tx   d 8 30 08 0A 00 00 00 00 00
 11.053140 1  7AE             Rx   d 8 21 FF FF FF FF FF AA AA
 11.175563 1  7A6             Tx   d 8 03 22 F1 91 00 00 00 00
 11.183136 1  7AE             Rx   d 8 07 62 F1 91 41 2E 30 30
 11.299628 1  7A6             Tx   d 8 03 22 F1 93 00 00 00 00
 11.303291 1  7AE             Rx   d 8 07 62 F1 93 41 2E 30 30
 11.423319 1  7A6             Tx   d 8 03 22 F1 C1 00 00 00 00
 11.433462 1  7AE             Rx   d 8 03 7F 22 22 AA AA AA AA
 11.549447 1  7A6             Tx   d 8 03 22 F1 C2 00 00 00 00
 11.553123 1  7AE             Rx   d 8 03 7F 22 12 AA AA AA AA
 11.679311 1  7A6             Tx   d 8 03 22 F1 95 00 00 00 00
 11.683102 1  7AE             Rx   d 8 07 62 F1 95 41 2E 30 30
 11.810379 1  7A6             Tx   d 8 03 22 F1 A0 00 00 00 00
 11.813126 1  7AE             Rx   d 8 07 62 F1 A0 41 2E 30 30
 11.942174 1  7A6             Tx   d 8 03 22 F1 A1 00 00 00 00
 11.953198 1  7AE             Rx   d 8 07 62 F1 A1 53 31 31 30
 12.086645 1  7A6             Tx   d 8 03 22 F1 B0 00 00 00 00
 12.093239 1  7AE             Rx   d 8 04 62 F1 B0 01 AA AA AA
 12.213005 1  7A6             Tx   d 8 03 22 F1 B1 00 00 00 00
 12.223352 1  7AE             Rx   d 8 07 62 F1 B1 41 2E 30 30
 12.339371 1  7A6             Tx   d 8 03 22 F1 DD 00 00 00 00
 12.343267 1  7AE             Rx   d 8 10 10 62 F1 DD 41 30 30
 12.353636 1  7A6             Tx   d 8 30 08 0A 00 00 00 00 00
 12.353671 1  ErrorFrame
 12.373149 1  7AE             Rx   d 8 21 30 30 00 00 00 00 00
 12.393174 1  7AE             Rx   d 8 22 00 00 00 AA AA AA AA
 12.519293 1  7A6             Tx   d 8 03 22 F1 97 00 00 00 00
 12.523277 1  7AE             Rx   d 8 07 62 F1 97 4D 46 53 57
 12.651238 1  7A6             Tx   d 8 03 22 F1 FF 00 00 00 00
 12.653190 1  7AE             Rx   d 8 03 7F 22 12 AA AA AA AA
 12.772658 1  7A6             Tx   d 8 01 22 00 00 00 00 00 00
 12.783155 1  7AE             Rx   d 8 03 7F 22 13 AA AA AA AA
 12.906186 1  7A6             Tx   d 8 03 22 D1 00 00 00 00 00
 12.912746 1  7AE             Rx   d 8 03 7F 22 31 AA AA AA AA
 13.028310 1  7A6             Tx   d 8 03 22 50 DD 00 00 00 00
 13.032656 1  7AE             Rx   d 8 03 7F 22 31 AA AA AA AA
 13.304153 1  7A6             Tx   d 8 02 10 02 00 00 00 00 00
 13.312670 1  7AE             Rx   d 8 03 7F 10 22 AA AA AA AA
 13.378437 1  7A6             Tx   d 8 03 19 02 08 00 00 00 00
 18.424888 1  ErrorFrame
 18.424955 1  ErrorFrame
 18.425283 1  ErrorFrame
 18.425303 1  ErrorFrame
 18.425549 1  ErrorFrame
 18.425828 1  ErrorFrame
 18.425862 1  ErrorFrame
 18.426115 1  ErrorFrame
 18.426362 1  ErrorFrame
 18.426641 1  ErrorFrame
 18.426894 1  ErrorFrame
 18.427207 1  ErrorFrame
 18.427542 1  ErrorFrame
 18.427729 1  ErrorFrame
 18.427979 1  ErrorFrame
 18.428263 1  ErrorFrame
 18.428513 1  ErrorFrame
 18.428776 1  ErrorFrame
 18.429053 1  ErrorFrame
 18.429316 1  ErrorFrame
 18.429589 1  ErrorFrame
 18.429859 1  ErrorFrame
 18.430128 1  ErrorFrame
 18.430410 1  ErrorFrame
 18.430676 1  ErrorFrame
 18.430957 1  ErrorFrame
 18.431278 1  7A6             Tx   d 8 04 14 FF FF FF 00 00 00
 18.431293 1  ErrorFrame
 18.446165 1  7AE             Rx   d 8 01 54 AA AA AA AA AA AA
 19.193182 1  7A6             Tx   d 8 02 10 01 00 00 00 00 00
 19.202477 1  7AE             Rx   d 8 06 50 01 00 32 01 F4 AA
 19.412856 1  7A6             Tx   d 8 02 10 02 00 00 00 00 00
 19.422470 1  7AE             Rx   d 8 03 7F 10 22 AA AA AA AA
 19.630007 1  7A6             Tx   d 8 02 10 03 00 00 00 00 00
 19.632495 1  7AE             Rx   d 8 06 50 03 00 32 01 F4 AA
 19.847356 1  7A6             Tx   d 8 02 10 02 00 00 00 00 00
 19.852458 1  7AE             Rx   d 8 03 7F 10 22 AA AA AA AA
 20.054405 1  7A6             Tx   d 8 02 10 01 00 00 00 00 00
 20.062506 1  7AE             Rx   d 8 06 50 01 00 32 01 F4 AA
 20.270641 1  7A6             Tx   d 8 02 10 03 00 00 00 00 00
 20.272479 1  7AE             Rx   d 8 06 50 03 00 32 01 F4 AA
 20.479005 1  7A6             Tx   d 8 02 10 01 00 00 00 00 00
 20.482458 1  7AE             Rx   d 8 06 50 01 00 32 01 F4 AA
 20.549171 1  7A6             Tx   d 8 02 27 11 00 00 00 00 00
 20.562488 1  7AE             Rx   d 8 03 7F 27 7F AA AA AA AA
 20.834252 1  7A6             Tx   d 8 02 10 03 00 00 00 00 00
 20.842477 1  7AE             Rx   d 8 06 50 03 00 32 01 F4 AA
 21.187291 1  7A6             Tx   d 8 02 10 01 00 00 00 00 00
 21.192469 1  7AE             Rx   d 8 06 50 01 00 32 01 F4 AA
 21.258062 1  7A6             Tx   d 8 02 27 11 00 00 00 00 00
 21.262429 1  7AE             Rx   d 8 03 7F 27 7F AA AA AA AA
End TriggerBlock
