date Tue Mar 10 02:58:54.245 PM 2026
base hex  timestamps absolute
internal events logged
Begin Triggerblock Tue Mar 10 02:58:54.264 PM 2026
 0.000000 Start of measurement
 0.000000 1  7A6             Tx   d 8 03 22 F1 DD 00 00 00 00
 0.004609 1  7AE             Rx   d 8 10 10 62 F1 DD 41 30 30
 0.011598 1  7A6             Tx   d 8 30 08 0A 00 00 00 00 00
 0.024594 1  7AE             Rx   d 8 21 30 30 00 00 00 00 00
 0.044652 1  7AE             Rx   d 8 22 00 00 00 AA AA AA AA
 0.158190 1  7A6             Tx   d 8 03 22 F1 00 00 00 00 00
 0.164556 1  7AE             Rx   d 8 06 62 F1 00 31 2E 30 AA
 0.284545 1  7A6             Tx   d 8 03 22 F1 8B 00 00 00 00
 0.294562 1  7AE             Rx   d 8 07 62 F1 8B 20 25 12 19
 0.413897 1  7A6             Tx   d 8 03 22 F1 8C 00 00 00 00
 0.424607 1  7AE             Rx   d 8 10 0B 62 F1 8C 30 30 30
 0.431999 1  7A6             Tx   d 8 30 08 0A 00 00 00 00 00
 0.444582 1  7AE             Rx   d 8 21 30 30 30 30 31 AA AA
 0.561950 1  7A6             Tx   d 8 03 22 F1 93 00 00 00 00
 0.564582 1  7AE             Rx   d 8 07 62 F1 93 41 2E 30 30
 0.819407 1  7A6             Tx   d 8 02 10 01 00 00 00 00 00
 0.824577 1  7AE             Rx   d 8 06 50 01 00 32 01 F4 AA
 1.023190 1  7A6             Tx   d 8 02 10 02 00 00 00 00 00
 1.055197 1  7AE             Rx   d 8 06 50 02 00 32 00 C8 00
 1.256315 1  7A6             Tx   d 8 02 10 03 00 00 00 00 00
 1.265091 1  7AE             Rx   d 8 06 50 03 00 32 00 C8 00
 1.470263 1  7A6             Tx   d 8 02 10 FF 00 00 00 00 00
 3.743162 1  7A6             Tx   d 8 01 10 00 00 00 00 00 00
 6.050353 1  7A6             Tx   d 8 03 10 01 01 00 00 00 00
 6.055027 1  7AE             Rx   d 8 03 7F 10 13 32 00 C8 00
 6.322440 1  7A6             Tx   d 8 02 10 03 00 00 00 00 00
 6.325029 1  7AE             Rx   d 8 06 50 03 00 32 00 C8 00
 6.387108 1  7A6             Tx   d 8 03 19 02 08 00 00 00 00
 11.418175 1  7A6             Tx   d 8 03 19 0F 08 00 00 00 00
 11.427988 1  7AE             Rx   d 8 03 7F 19 12 AA AA AA AA
 11.495789 1  7A6             Tx   d 8 03 19 0E 08 00 00 00 00
 11.497752 1  7AE             Rx   d 8 03 7F 19 12 AA AA AA AA
 11.560630 1  7A6             Tx   d 8 03 19 FF 08 00 00 00 00
 11.567775 1  7AE             Rx   d 8 03 7F 19 12 AA AA AA AA
 11.826602 1  7A6             Tx   d 8 02 10 01 00 00 00 00 00
 11.837815 1  7AE             Rx   d 8 06 50 01 00 32 01 F4 AA
 11.901343 1  7A6             Tx   d 8 03 19 02 08 00 00 00 00
 11.907798 1  7AE             Rx   d 8 03 59 02 00 AA AA AA AA
 11.974872 1  7A6             Tx   d 8 04 14 FF FF FF 00 00 00
 11.977949 1  7AE             Rx   d 8 01 54 AA AA AA AA AA AA
 12.041446 1  7A6             Tx   d 8 03 22 B3 02 00 00 00 00
 12.047779 1  7AE             Rx   d 8 10 09 62 B3 02 FF FF 00
 12.054803 1  7A6             Tx   d 8 30 08 0A 00 00 00 00 00
 12.067790 1  7AE             Rx   d 8 21 00 00 93 AA AA AA AA
 12.180136 1  7A6             Tx   d 8 03 22 B3 03 00 00 00 00
 12.188307 1  7AE             Rx   d 8 10 0B 62 B3 03 FF FF FF
 12.193868 1  7A6             Tx   d 8 30 08 0A 00 00 00 00 00
 12.207804 1  7AE             Rx   d 8 21 01 08 00 00 01 AA AA
 12.326416 1  7A6             Tx   d 8 03 22 F1 EF 00 00 00 00
 12.337800 1  7AE             Rx   d 8 10 2B 62 F1 EF 07 A6 0B
 12.342496 1  7A6             Tx   d 8 30 08 0A 00 00 00 00 00
 12.357816 1  7AE             Rx   d 8 21 52 31 30 20 4D 51 34
 12.377795 1  7AE             Rx   d 8 22 2F 31 2F 30 0C 52 31
 12.397807 1  7AE             Rx   d 8 23 35 35 20 4D 51 34 2F
 12.418220 1  7AE             Rx   d 8 24 31 2F 30 0C 52 31 35
 12.437797 1  7AE             Rx   d 8 25 36 20 4D 51 34 2F 31
 12.457869 1  7AE             Rx   d 8 26 2F 30 AA AA AA AA AA
 12.570289 1  7A6             Tx   d 8 03 22 F1 00 00 00 00 00
 12.578123 1  7AE             Rx   d 8 06 62 F1 00 31 2E 30 AA
 12.695090 1  7A6             Tx   d 8 03 22 F1 87 00 00 00 00
 12.697789 1  7AE             Rx   d 8 10 0D 62 F1 87 39 33 34
 12.705681 1  7A6             Tx   d 8 30 08 0A 00 00 00 00 00
 12.727707 1  7AE             Rx   d 8 21 44 38 47 42 35 31 30
 12.841116 1  7A6             Tx   d 8 03 22 F1 8B 00 00 00 00
 12.851279 1  7AE             Rx   d 8 07 62 F1 8B 20 25 12 19
 12.971094 1  7A6             Tx   d 8 03 22 F1 8C 00 00 00 00
 12.977767 1  7AE             Rx   d 8 10 0B 62 F1 8C 30 30 30
 12.982931 1  7A6             Tx   d 8 30 08 0A 00 00 00 00 00
 12.997887 1  7AE             Rx   d 8 21 30 30 30 30 31 AA AA
 13.111256 1  7A6             Tx   d 8 03 22 F1 91 00 00 00 00
 13.127828 1  7AE             Rx   d 8 07 62 F1 91 41 2E 30 30
 13.244638 1  7A6             Tx   d 8 03 22 F1 93 00 00 00 00
 13.247807 1  7AE             Rx   d 8 07 62 F1 93 41 2E 30 30
 13.361251 1  7A6             Tx   d 8 03 22 F1 C1 00 00 00 00
 13.367751 1  7AE             Rx   d 8 03 7F 22 22 AA AA AA AA
 13.490838 1  7A6             Tx   d 8 03 22 F1 C2 00 00 00 00
 13.497760 1  7AE             Rx   d 8 03 7F 22 12 AA AA AA AA
 13.609980 1  7A6             Tx   d 8 03 22 F1 95 00 00 00 00
 13.617796 1  7AE             Rx   d 8 07 62 F1 95 41 2E 30 30
 13.738794 1  7A6             Tx   d 8 03 22 F1 A0 00 00 00 00
 13.747785 1  7AE             Rx   d 8 07 62 F1 A0 41 2E 30 30
 13.869846 1  7A6             Tx   d 8 03 22 F1 A1 00 00 00 00
 13.877770 1  7AE             Rx   d 8 07 62 F1 A1 53 31 31 30
 13.999551 1  7A6             Tx   d 8 03 22 F1 B0 00 00 00 00
 14.007784 1  7AE             Rx   d 8 04 62 F1 B0 01 AA AA AA
 14.130154 1  7A6             Tx   d 8 03 22 F1 B1 00 00 00 00
 14.137782 1  7AE             Rx   d 8 07 62 F1 B1 41 2E 30 30
 14.259823 1  7A6             Tx   d 8 03 22 F1 DD 00 00 00 00
 14.267798 1  7AE             Rx   d 8 10 10 62 F1 DD 41 30 30
 14.274094 1  7A6             Tx   d 8 30 08 0A 00 00 00 00 00
 14.287845 1  7AE             Rx   d 8 21 30 30 00 00 00 00 00
 14.307981 1  7AE             Rx   d 8 22 00 00 00 AA AA AA AA
 14.426054 1  7A6             Tx   d 8 03 22 F1 97 00 00 00 00
 14.427795 1  7AE             Rx   d 8 07 62 F1 97 4D 46 53 57
 14.682658 1  7A6             Tx   d 8 02 10 03 00 00 00 00 00
 14.687782 1  7AE             Rx   d 8 06 50 03 00 32 01 F4 AA
 14.750291 1  7A6             Tx   d 8 03 19 02 08 00 00 00 00
 14.757784 1  7AE             Rx   d 8 03 59 02 00 AA AA AA AA
 14.819651 1  7A6             Tx   d 8 04 14 FF FF FF 00 00 00
 14.828030 1  7AE             Rx   d 8 01 54 AA AA AA AA AA AA
 14.890644 1  7A6             Tx   d 8 03 22 B3 02 00 00 00 00
 14.897784 1  7AE             Rx   d 8 10 09 62 B3 02 FF FF 00
 14.902305 1  7A6             Tx   d 8 30 08 0A 00 00 00 00 00
 14.927804 1  7AE             Rx   d 8 21 00 00 93 AA AA AA AA
 15.047251 1  7A6             Tx   d 8 03 22 B3 03 00 00 00 00
 15.057801 1  7AE             Rx   d 8 10 0B 62 B3 03 FF FF FF
 15.062317 1  7A6             Tx   d 8 30 08 0A 00 00 00 00 00
 15.077903 1  7AE             Rx   d 8 21 01 08 00 00 01 AA AA
 15.194113 1  7A6             Tx   d 8 03 22 F1 EF 00 00 00 00
 15.197790 1  7AE             Rx   d 8 10 2B 62 F1 EF 07 A6 0B
 15.203074 1  7A6             Tx   d 8 30 08 0A 00 00 00 00 00
 15.217941 1  7AE             Rx   d 8 21 52 31 30 20 4D 51 34
 15.237996 1  7AE             Rx   d 8 22 2F 31 2F 30 0C 52 31
 15.257798 1  7AE             Rx   d 8 23 35 35 20 4D 51 34 2F
 15.277859 1  7AE             Rx   d 8 24 31 2F 30 0C 52 31 35
 15.297802 1  7AE             Rx   d 8 25 36 20 4D 51 34 2F 31
 15.327701 1  7AE             Rx   d 8 26 2F 30 AA AA AA AA AA
 15.442409 1  7A6             Tx   d 8 03 22 F1 00 00 00 00 00
 15.447776 1  7AE             Rx   d 8 06 62 F1 00 31 2E 30 AA
 15.569955 1  7A6             Tx   d 8 03 22 F1 87 00 00 00 00
 15.577770 1  7AE             Rx   d 8 10 0D 62 F1 87 39 33 34
 15.582503 1  7A6             Tx   d 8 30 08 0A 00 00 00 00 00
 15.597815 1  7AE             Rx   d 8 21 44 38 47 42 35 31 30
 15.710701 1  7A6             Tx   d 8 03 22 F1 8B 00 00 00 00
 15.727802 1  7AE             Rx   d 8 07 62 F1 8B 20 25 12 19
 15.848306 1  7A6             Tx   d 8 03 22 F1 8C 00 00 00 00
 15.857800 1  7AE             Rx   d 8 10 0B 62 F1 8C 30 30 30
 15.862332 1  7A6             Tx   d 8 30 08 0A 00 00 00 00 00
 15.878179 1  7AE             Rx   d 8 21 30 30 30 30 31 AA AA
 15.998213 1  7A6             Tx   d 8 03 22 F1 91 00 00 00 00
 16.008002 1  7AE             Rx   d 8 07 62 F1 91 41 2E 30 30
 16.126242 1  7A6             Tx   d 8 03 22 F1 93 00 00 00 00
 16.127792 1  7AE             Rx   d 8 07 62 F1 93 41 2E 30 30
 16.246602 1  7A6             Tx   d 8 03 22 F1 C1 00 00 00 00
 16.257782 1  7AE             Rx   d 8 03 7F 22 22 AA AA AA AA
 16.370639 1  7A6             Tx   d 8 03 22 F1 C2 00 00 00 00
 16.377910 1  7AE             Rx   d 8 03 7F 22 12 AA AA AA AA
 16.497259 1  7A6             Tx   d 8 03 22 F1 95 00 00 00 00
 16.507711 1  7AE             Rx   d 8 07 62 F1 95 41 2E 30 30
 16.628033 1  7A6             Tx   d 8 03 22 F1 A0 00 00 00 00
 16.637431 1  7AE             Rx   d 8 07 62 F1 A0 41 2E 30 30
 16.756164 1  7A6             Tx   d 8 03 22 F1 A1 00 00 00 00
 16.757334 1  7AE             Rx   d 8 07 62 F1 A1 53 31 31 30
 16.880778 1  7A6             Tx   d 8 03 22 F1 B0 00 00 00 00
 16.887342 1  7AE             Rx   d 8 04 62 F1 B0 01 AA AA AA
 17.007712 1  7A6             Tx   d 8 03 22 F1 B1 00 00 00 00
 17.017358 1  7AE             Rx   d 8 07 62 F1 B1 41 2E 30 30
 17.139944 1  7A6             Tx   d 8 03 22 F1 DD 00 00 00 00
 17.147319 1  7AE             Rx   d 8 10 10 62 F1 DD 41 30 30
 17.151512 1  7A6             Tx   d 8 30 08 0A 00 00 00 00 00
 17.167459 1  7AE             Rx   d 8 21 30 30 00 00 00 00 00
 17.187446 1  7AE             Rx   d 8 22 00 00 00 AA AA AA AA
 17.304471 1  7A6             Tx   d 8 03 22 F1 97 00 00 00 00
 17.307291 1  7AE             Rx   d 8 07 62 F1 97 4D 46 53 57
 17.426690 1  7A6             Tx   d 8 03 22 F1 FF 00 00 00 00
 17.437341 1  7AE             Rx   d 8 03 7F 22 12 AA AA AA AA
 17.557194 1  7A6             Tx   d 8 01 22 00 00 00 00 00 00
 17.567415 1  7AE             Rx   d 8 03 7F 22 13 AA AA AA AA
 17.685698 1  7A6             Tx   d 8 03 22 D1 00 00 00 00 00
 17.687334 1  7AE             Rx   d 8 03 7F 22 31 AA AA AA AA
 17.806319 1  7A6             Tx   d 8 03 22 50 DD 00 00 00 00
 17.817337 1  7AE             Rx   d 8 03 7F 22 31 AA AA AA AA
 18.069043 1  7A6             Tx   d 8 02 10 02 00 00 00 00 00
 18.107914 1  7AE             Rx   d 8 06 50 02 00 32 00 C8 00
 18.171249 1  7A6             Tx   d 8 03 19 02 08 00 00 00 00
 23.201096 1  7A6             Tx   d 8 04 14 FF FF FF 00 00 00
 23.211143 1  7AE             Rx   d 8 01 54 AA AA AA AA AA AA
 23.419349 1  7A6             Tx   d 8 02 10 01 00 00 00 00 00
 23.430534 1  7AE             Rx   d 8 06 50 01 00 32 01 F4 AA
 23.628441 1  7A6             Tx   d 8 02 10 02 00 00 00 00 00
 23.660863 1  7AE             Rx   d 8 06 50 02 00 32 00 C8 00
 23.863517 1  7A6             Tx   d 8 02 10 03 00 00 00 00 00
 23.870532 1  7AE             Rx   d 8 06 50 03 00 32 00 C8 00
 24.069117 1  7A6             Tx   d 8 02 10 02 00 00 00 00 00
 24.070516 1  7AE             Rx   d 8 06 50 02 00 32 00 C8 00
 24.274760 1  7A6             Tx   d 8 02 10 01 00 00 00 00 00
 24.280434 1  ErrorFrame
 26.545452 1  7A6             Tx   d 8 02 10 03 00 00 00 00 00
 26.553277 1  7AE             Rx   d 8 06 50 03 00 32 01 F4 AA
 26.752293 1  7A6             Tx   d 8 02 10 01 00 00 00 00 00
 26.763341 1  7AE             Rx   d 8 06 50 01 00 32 01 F4 AA
 26.826058 1  7A6             Tx   d 8 02 27 11 00 00 00 00 00
 26.833292 1  7AE             Rx   d 8 03 7F 27 7F AA AA AA AA
 27.089634 1  7A6             Tx   d 8 02 10 03 00 00 00 00 00
 27.093276 1  7AE             Rx   d 8 06 50 03 00 32 01 F4 AA
 27.270611 1  7A6             Tx   d 8 02 27 11 00 00 00 00 00
 27.274811 1  7AE             Rx   d 8 10 0A 67 11 73 3F 2D 8E
 27.282912 1  7A6             Tx   d 8 30 08 0A 00 00 00 00 00
 27.294385 1  7AE             Rx   d 8 21 AB 4D 3E 87 AA AA AA
 45.061482 1  7A6             Tx   d 8 02 10 01 00 00 00 00 00
 45.063960 1  7AE             Rx   d 8 06 50 01 00 32 01 F4 AA
 45.135703 1  7A6             Tx   d 8 02 27 11 00 00 00 00 00
 45.144045 1  7AE             Rx   d 8 03 7F 27 7F AA AA AA AA
 45.414076 1  7A6             Tx   d 8 02 10 01 00 00 00 00 00
 45.423914 1  7AE             Rx   d 8 06 50 01 00 32 01 F4 AA
 45.622759 1  7A6             Tx   d 8 02 10 03 00 00 00 00 00
 45.623967 1  7AE             Rx   d 8 06 50 03 00 32 01 F4 AA
 45.829248 1  7A6             Tx   d 8 02 10 02 00 00 00 00 00
 45.864407 1  7AE             Rx   d 8 06 50 02 00 32 00 C8 00
 46.063219 1  7A6             Tx   d 8 02 10 03 00 00 00 00 00
 46.064329 1  7AE             Rx   d 8 06 50 03 00 32 00 C8 00
 46.269709 1  7A6             Tx   d 8 02 10 03 00 00 00 00 00
 46.274356 1  7AE             Rx   d 8 06 50 03 00 32 00 C8 00
 46.473356 1  7A6             Tx   d 8 02 10 01 00 00 00 00 00
 46.474243 1  ErrorFrame
 48.741884 1  7A6             Tx   d 8 02 10 02 00 00 00 00 00
 48.777147 1  7AE             Rx   d 8 06 50 02 00 32 00 C8 00
 48.977215 1  7A6             Tx   d 8 02 10 01 00 00 00 00 00
 48.987022 1  ErrorFrame
 51.328330 1  7A6             Tx   d 8 02 10 02 00 00 00 00 00
 51.360307 1  7AE             Rx   d 8 06 50 02 00 32 00 C8 00
 51.598392 1  7A6             Tx   d 8 02 10 03 00 00 00 00 00
 51.599966 1  7AE             Rx   d 8 06 50 03 00 32 00 C8 00
 51.832501 1  7A6             Tx   d 8 02 10 01 00 00 00 00 00
 51.839793 1  ErrorFrame
 54.100413 1  7A6             Tx   d 8 03 10 31 01 00 00 00 00
 54.102582 1  7AE             Rx   d 8 03 7F 10 13 AA AA AA AA
 54.307136 1  7A6             Tx   d 8 03 10 01 01 00 00 00 00
 54.312587 1  7AE             Rx   d 8 03 7F 10 13 AA AA AA AA
 54.374707 1  7A6             Tx   d 8 04 14 FF FF F1 00 00 00
 54.382619 1  7AE             Rx   d 8 03 7F 14 12 AA AA AA AA
 54.444123 1  7A6             Tx   d 8 04 14 FF FF FF 00 00 00
 54.452843 1  7AE             Rx   d 8 01 54 AA AA AA AA AA AA
 54.516227 1  7A6             Tx   d 8 04 22 F1 8B 02 00 00 00
 54.522635 1  7AE             Rx   d 8 03 7F 22 13 AA AA AA AA
 54.644028 1  7A6             Tx   d 8 04 22 F1 87 01 00 00 00
 54.652609 1  7AE             Rx   d 8 03 7F 22 13 AA AA AA AA
 54.774354 1  7A6             Tx   d 8 04 22 F1 A0 01 00 00 00
 54.782560 1  7AE             Rx   d 8 03 7F 22 13 AA AA AA AA
 54.905370 1  7A6             Tx   d 8 04 22 F1 95 04 00 00 00
 54.912630 1  7AE             Rx   d 8 03 7F 22 13 AA AA AA AA
 55.031687 1  7A6             Tx   d 8 04 22 F1 B0 01 00 00 00
 55.042711 1  7AE             Rx   d 8 03 7F 22 13 AA AA AA AA
 55.161954 1  7A6             Tx   d 8 04 22 F1 91 01 00 00 00
 55.182635 1  7AE             Rx   d 8 03 7F 22 13 AA AA AA AA
 55.297902 1  7A6             Tx   d 8 04 22 F1 EF 02 00 00 00
 55.306588 1  7AE             Rx   d 8 03 7F 22 13 AA AA AA AA
 55.420664 1  7A6             Tx   d 8 04 22 F1 00 01 00 00 00
 55.422602 1  7AE             Rx   d 8 03 7F 22 13 AA AA AA AA
 55.542113 1  7A6             Tx   d 8 03 19 02 08 00 00 00 00
 55.552621 1  7AE             Rx   d 8 03 59 02 00 AA AA AA AA
 55.750861 1  7A6             Tx   d 8 02 10 03 00 00 00 00 00
 55.752632 1  7AE             Rx   d 8 06 50 03 00 32 01 F4 AA
 55.957983 1  7A6             Tx   d 8 03 10 03 01 00 00 00 00
 55.962590 1  7AE             Rx   d 8 03 7F 10 13 AA AA AA AA
 56.028931 1  7A6             Tx   d 8 04 22 F1 87 01 00 00 00
 56.032594 1  7AE             Rx   d 8 03 7F 22 13 AA AA AA AA
 56.152685 1  7A6             Tx   d 8 04 22 F1 97 03 00 00 00
 56.162629 1  7AE             Rx   d 8 03 7F 22 13 AA AA AA AA
 56.282853 1  7A6             Tx   d 8 04 22 F1 A1 01 00 00 00
 56.292675 1  7AE             Rx   d 8 03 7F 22 13 AA AA AA AA
 56.412561 1  7A6             Tx   d 8 04 22 F1 B1 04 00 00 00
 56.422663 1  7AE             Rx   d 8 03 7F 22 13 AA AA AA AA
 56.541583 1  7A6             Tx   d 8 04 22 F1 31 01 00 00 00
 56.552675 1  7AE             Rx   d 8 03 7F 22 13 AA AA AA AA
 56.671312 1  7A6             Tx   d 8 04 22 F1 C1 01 00 00 00
 56.682684 1  7AE             Rx   d 8 03 7F 22 13 AA AA AA AA
 56.807357 1  7A6             Tx   d 8 03 19 02 08 00 00 00 00
 56.812729 1  7AE             Rx   d 8 03 59 02 00 AA AA AA AA
 56.876283 1  7A6             Tx   d 8 02 27 11 00 00 00 00 00
 56.883445 1  7AE             Rx   d 8 10 0A 67 11 87 41 88 90
 56.891798 1  7A6             Tx   d 8 30 08 0A 00 00 00 00 00
 56.903271 1  7AE             Rx   d 8 21 A0 74 B8 96 AA AA AA
 74.616624 1  7A6             Tx   d 8 02 27 11 00 00 00 00 00
 74.623383 1  7AE             Rx   d 8 03 7F 27 7F AA AA AA AA
 74.991203 1  7A6             Tx   d 8 02 10 02 00 00 00 00 00
 75.024023 1  7AE             Rx   d 8 06 50 02 00 32 00 C8 00
 75.229424 1  7A6             Tx   d 8 03 10 02 01 00 00 00 00
 75.233665 1  7AE             Rx   d 8 03 7F 10 13 32 00 C8 00
 75.295943 1  7A6             Tx   d 8 03 19 02 08 00 00 00 00
 80.486368 1  7A6             Tx   d 8 02 10 03 00 00 00 00 00
 80.496470 1  7AE             Rx   d 8 06 50 03 00 32 01 F4 AA
 80.564192 1  7A6             Tx   d 8 02 27 11 00 00 00 00 00
 80.567652 1  7AE             Rx   d 8 10 0A 67 11 9C 4D 80 DB
 80.573631 1  7A6             Tx   d 8 30 08 0A 00 00 00 00 00
 80.587820 1  7AE             Rx   d 8 21 89 71 64 4C AA AA AA
End TriggerBlock
