date Wed Jun 25 01:34:11.907 PM 2025
base hex  timestamps absolute
internal events logged
Begin Triggerblock Wed Jun 25 01:34:12.439 PM 2025
 0.000000 Start of measurement
 0.000000 1  716             Tx   d 8 02 10 01 00 00 00 00 00
 0.019936 1  71E             Rx   d 8 06 50 01 00 32 01 F4 AA
 0.238446 1  716             Tx   d 8 02 10 03 00 00 00 00 00
 0.259844 1  71E             Rx   d 8 06 50 03 00 32 01 F4 AA
 0.479191 1  716             Tx   d 8 03 22 F1 DD 00 00 00 00
 0.499841 1  71E             Rx   d 8 10 0B 62 F1 DD 30 31 2E
 0.510515 1  716             Tx   d 8 30 08 0A 00 00 00 00 00
 0.515924 1  71E             Rx   d 8 21 30 31 2E 30 30 AA AA
 0.634606 1  716             Tx   d 8 03 22 F1 00 00 00 00 00
 0.649781 1  71E             Rx   d 8 06 62 F1 00 25 04 01 AA
 0.763835 1  716             Tx   d 8 03 22 F1 8B 00 00 00 00
 0.780171 1  71E             Rx   d 8 07 62 F1 8B 00 00 00 00
 0.896855 1  716             Tx   d 8 03 22 F1 8C 00 00 00 00
 0.919867 1  71E             Rx   d 8 10 0D 62 F1 8C 61 38 31
 0.929536 1  716             Tx   d 8 30 08 0A 00 00 00 00 00
 0.935836 1  71E             Rx   d 8 21 31 32 33 34 35 37 39
 1.052484 1  716             Tx   d 8 03 22 F1 93 00 00 00 00
 1.069788 1  71E             Rx   d 8 10 08 62 F1 93 30 31 2E
 1.075306 1  716             Tx   d 8 30 08 0A 00 00 00 00 00
 1.079736 1  71E             Rx   d 8 21 30 30 AA AA AA AA AA
 1.250324 1  716             Tx   d 8 03 22 F1 DD 00 00 00 00
 1.269830 1  71E             Rx   d 8 10 0B 62 F1 DD 30 31 2E
 1.276246 1  716             Tx   d 8 30 08 0A 00 00 00 00 00
 1.279736 1  71E             Rx   d 8 21 30 31 2E 30 30 AA AA
 4.433893 1  716             Tx   d 8 03 22 F1 00 00 00 00 00
 4.449936 1  71E             Rx   d 8 06 62 F1 00 25 04 01 AA
 7.626339 1  716             Tx   d 8 03 22 F1 8B 00 00 00 00
 7.640129 1  71E             Rx   d 8 07 62 F1 8B 00 00 00 00
 10.825252 1  716             Tx   d 8 03 22 F1 8C 00 00 00 00
 10.840082 1  71E             Rx   d 8 10 0D 62 F1 8C 61 38 31
 10.845437 1  716             Tx   d 8 30 08 0A 00 00 00 00 00
 10.850066 1  71E             Rx   d 8 21 31 32 33 34 35 37 39
 14.022401 1  716             Tx   d 8 03 22 F1 93 00 00 00 00
 14.040368 1  71E             Rx   d 8 10 08 62 F1 93 30 31 2E
 14.051798 1  716             Tx   d 8 30 08 0A 00 00 00 00 00
 14.055465 1  71E             Rx   d 8 21 30 30 AA AA AA AA AA
 17.219537 1  716             Tx   d 8 02 10 01 00 00 00 00 00
 17.240413 1  71E             Rx   d 8 06 50 01 00 32 01 F4 AA
 20.413904 1  716             Tx   d 8 02 10 03 00 00 00 00 00
 20.430598 1  71E             Rx   d 8 06 50 03 00 32 01 F4 AA
 23.610507 1  716             Tx   d 8 02 10 FF 00 00 00 00 00
 23.620541 1  71E             Rx   d 8 03 7F 10 12 AA AA AA AA
 26.794314 1  716             Tx   d 8 02 11 01 00 00 00 00 00
 26.800657 1  71E             Rx   d 8 02 51 01 AA AA AA AA AA
 29.981099 1  716             Tx   d 8 02 11 03 00 00 00 00 00
 29.988442 1  71E             Rx   d 8 03 7F 11 12 AA AA AA AA
 33.153019 1  716             Tx   d 8 02 11 08 00 00 00 00 00
 33.158635 1  71E             Rx   d 8 03 7F 11 12 AA AA AA AA
 39.517564 1  716             Tx   d 8 03 28 08 00 00 00 00 00
 39.528888 1  71E             Rx   d 8 03 7F 28 7F AA AA AA AA
 42.707488 1  716             Tx   d 8 02 10 01 00 00 00 00 00
 42.728888 1  71E             Rx   d 8 06 50 01 00 32 01 F4 AA
 45.922780 1  7DF             Tx   d 8 30 08 0A 00 00 00 00 00
 45.944695 1  7DF             Tx   d 8 30 08 0A 00 00 00 00 00
 45.955440 1  7DF             Tx   d 8 30 08 0A 00 00 00 00 00
 45.965950 1  7DF             Tx   d 8 30 08 0A 00 00 00 00 00
 45.984402 1  7DF             Tx   d 8 30 08 0A 00 00 00 00 00
 45.990041 1  7DF             Tx   d 8 30 08 0A 00 00 00 00 00
 46.009899 1  7DF             Tx   d 8 02 85 01 00 00 00 00 00
 49.128893 1  7DF             Tx   d 8 02 85 02 00 00 00 00 00
 54.259262 1  716             Tx   d 8 02 85 FF 00 00 00 00 00
 54.269197 1  71E             Rx   d 8 03 7F 85 7F AA AA AA AA
 60.612680 1  716             Tx   d 8 02 10 03 00 00 00 00 00
 60.629377 1  71E             Rx   d 8 06 50 03 00 32 01 F4 AA
 63.791733 1  716             Tx   d 8 02 85 01 00 00 00 00 00
 63.799528 1  71E             Rx   d 8 02 C5 01 AA AA AA AA AA
 66.974789 1  716             Tx   d 8 02 85 02 00 00 00 00 00
 66.979722 1  71E             Rx   d 8 02 C5 02 AA AA AA AA AA
 70.141064 1  716             Tx   d 8 02 85 08 00 00 00 00 00
 70.149784 1  71E             Rx   d 8 03 7F 85 12 AA AA AA AA
 73.326580 1  716             Tx   d 8 02 85 0A 00 00 00 00 00
 73.339887 1  71E             Rx   d 8 03 7F 85 12 AA AA AA AA
 86.051397 1  716             Tx   d 8 03 19 0F FF 00 00 00 00
 86.060226 1  71E             Rx   d 8 03 7F 19 12 AA AA AA AA
 98.768972 1  716             Tx   d 8 04 14 FF FF FF 00 00 00
 98.780657 1  71E             Rx   d 8 01 54 AA AA AA AA AA AA
 101.949818 1  716             Tx   d 8 04 14 FF EE EE 00 00 00
 101.960631 1  71E             Rx   d 8 03 7F 14 22 AA AA AA AA
 105.134325 1  716             Tx   d 8 02 10 01 00 00 00 00 00
 105.150902 1  71E             Rx   d 8 06 50 01 00 32 01 F4 AA
 108.334418 1  716             Tx   d 8 03 22 F1 EF 00 00 00 00
 108.350819 1  71E             Rx   d 8 10 2B 62 F1 EF 07 16 0B
 108.356132 1  716             Tx   d 8 30 08 0A 00 00 00 00 00
 108.360790 1  71E             Rx   d 8 21 52 31 30 20 4B 59 31
 108.375915 1  71E             Rx   d 8 22 2F 31 2F 30 0C 52 31
 108.390898 1  71E             Rx   d 8 23 35 35 20 4B 59 31 2F
 108.406028 1  71E             Rx   d 8 24 31 2F 30 0C 52 31 35
 108.421242 1  71E             Rx   d 8 25 36 20 4B 59 31 2F 31
 108.437387 1  71E             Rx   d 8 26 2F 30 AA AA AA AA AA
 111.614883 1  716             Tx   d 8 03 22 F1 00 00 00 00 00
 111.630993 1  71E             Rx   d 8 06 62 F1 00 25 04 01 AA
 114.803725 1  716             Tx   d 8 03 22 F1 87 00 00 00 00
 114.821003 1  71E             Rx   d 8 10 0D 62 F1 87 39 36 35
 114.827173 1  716             Tx   d 8 30 08 0A 00 00 00 00 00
 114.830997 1  71E             Rx   d 8 21 34 30 44 59 30 30 30
 118.003490 1  716             Tx   d 8 03 22 F1 8B 00 00 00 00
 118.021255 1  71E             Rx   d 8 07 62 F1 8B 00 00 00 00
 121.203293 1  716             Tx   d 8 03 22 F1 8C 00 00 00 00
 121.221315 1  71E             Rx   d 8 10 0D 62 F1 8C 61 38 31
 121.230662 1  716             Tx   d 8 30 08 0A 00 00 00 00 00
 121.237378 1  71E             Rx   d 8 21 31 32 33 34 35 37 39
 124.418642 1  716             Tx   d 8 03 22 F1 91 00 00 00 00
 124.441361 1  71E             Rx   d 8 10 08 62 F1 91 30 31 2E
 124.449267 1  716             Tx   d 8 30 08 0A 00 00 00 00 00
 124.451422 1  71E             Rx   d 8 21 30 30 AA AA AA AA AA
 127.625743 1  716             Tx   d 8 03 22 F1 93 00 00 00 00
 127.641317 1  71E             Rx   d 8 10 08 62 F1 93 30 31 2E
 127.648854 1  716             Tx   d 8 30 08 0A 00 00 00 00 00
 127.651454 1  71E             Rx   d 8 21 30 30 AA AA AA AA AA
 130.825726 1  716             Tx   d 8 03 22 F1 C1 00 00 00 00
 130.841532 1  71E             Rx   d 8 10 23 62 F1 C1 A6 32 F7
 130.851871 1  716             Tx   d 8 30 08 0A 00 00 00 00 00
 130.857802 1  71E             Rx   d 8 21 CD 4D F6 CD A6 04 EB
 130.871720 1  71E             Rx   d 8 22 7E 3A 2E 85 0A 39 2D
 130.887012 1  71E             Rx   d 8 23 6D F1 C0 AA 2C 5A F0
 130.902062 1  71E             Rx   d 8 24 13 B5 45 F5 BC C9 D6
 130.916512 1  71E             Rx   d 8 25 FD AA AA AA AA AA AA
 134.092524 1  716             Tx   d 8 03 22 F1 95 00 00 00 00
 134.111705 1  71E             Rx   d 8 10 08 62 F1 95 30 31 2E
 134.120644 1  716             Tx   d 8 30 08 0A 00 00 00 00 00
 134.126717 1  71E             Rx   d 8 21 30 31 AA AA AA AA AA
 137.309210 1  716             Tx   d 8 03 22 F1 A0 00 00 00 00
 137.331821 1  71E             Rx   d 8 10 08 62 F1 A0 30 31 2E
 137.338770 1  716             Tx   d 8 30 08 0A 00 00 00 00 00
 137.341813 1  71E             Rx   d 8 21 30 31 AA AA AA AA AA
 140.526620 1  716             Tx   d 8 03 22 F1 A1 00 00 00 00
 140.541837 1  71E             Rx   d 8 07 62 F1 A1 61 38 31 32
 143.726244 1  716             Tx   d 8 03 22 F1 B0 00 00 00 00
 143.742047 1  71E             Rx   d 8 04 62 F1 B0 01 AA AA AA
 146.924783 1  716             Tx   d 8 03 22 F1 B1 00 00 00 00
 146.941939 1  71E             Rx   d 8 10 08 62 F1 B1 30 31 2E
 146.950603 1  716             Tx   d 8 30 08 0A 00 00 00 00 00
 146.951971 1  71E             Rx   d 8 21 30 31 AA AA AA AA AA
 150.132858 1  716             Tx   d 8 03 22 F1 DD 00 00 00 00
 150.152174 1  71E             Rx   d 8 10 0B 62 F1 DD 30 31 2E
 150.160385 1  716             Tx   d 8 30 08 0A 00 00 00 00 00
 150.162068 1  71E             Rx   d 8 21 30 31 2E 30 30 AA AA
 153.353866 1  716             Tx   d 8 03 22 F1 97 00 00 00 00
 153.372105 1  71E             Rx   d 8 07 62 F1 97 4D 4B 42 44
 156.549134 1  716             Tx   d 8 02 10 03 00 00 00 00 00
 156.573462 1  71E             Rx   d 8 06 50 03 00 32 01 F4 AA
 159.750430 1  716             Tx   d 8 03 22 F1 EF 00 00 00 00
 159.772434 1  71E             Rx   d 8 10 2B 62 F1 EF 07 16 0B
 159.780923 1  716             Tx   d 8 30 08 0A 00 00 00 00 00
 159.782342 1  71E             Rx   d 8 21 52 31 30 20 4B 59 31
 159.797654 1  71E             Rx   d 8 22 2F 31 2F 30 0C 52 31
 159.812592 1  71E             Rx   d 8 23 35 35 20 4B 59 31 2F
 159.828407 1  71E             Rx   d 8 24 31 2F 30 0C 52 31 35
 159.842448 1  71E             Rx   d 8 25 36 20 4B 59 31 2F 31
 159.858394 1  71E             Rx   d 8 26 2F 30 AA AA AA AA AA
 163.041535 1  716             Tx   d 8 03 22 F1 00 00 00 00 00
 163.062460 1  71E             Rx   d 8 06 62 F1 00 25 04 01 AA
 166.251730 1  716             Tx   d 8 03 22 F1 87 00 00 00 00
 166.272613 1  71E             Rx   d 8 10 0D 62 F1 87 39 36 35
 166.281965 1  716             Tx   d 8 30 08 0A 00 00 00 00 00
 166.287612 1  71E             Rx   d 8 21 34 30 44 59 30 30 30
 169.474003 1  716             Tx   d 8 03 22 F1 8B 00 00 00 00
 169.492701 1  71E             Rx   d 8 07 62 F1 8B 00 00 00 00
 172.673480 1  716             Tx   d 8 03 22 F1 8C 00 00 00 00
 172.692760 1  71E             Rx   d 8 10 0D 62 F1 8C 61 38 31
 172.702183 1  716             Tx   d 8 30 08 0A 00 00 00 00 00
 172.707813 1  71E             Rx   d 8 21 31 32 33 34 35 37 39
 175.894534 1  716             Tx   d 8 03 22 F1 91 00 00 00 00
 175.912870 1  71E             Rx   d 8 10 08 62 F1 91 30 31 2E
 175.923572 1  716             Tx   d 8 30 08 0A 00 00 00 00 00
 175.928069 1  71E             Rx   d 8 21 30 30 AA AA AA AA AA
 179.114325 1  716             Tx   d 8 03 22 F1 93 00 00 00 00
 179.132864 1  71E             Rx   d 8 10 08 62 F1 93 30 31 2E
 179.141557 1  716             Tx   d 8 30 08 0A 00 00 00 00 00
 179.142833 1  71E             Rx   d 8 21 30 30 AA AA AA AA AA
 182.317557 1  716             Tx   d 8 03 22 F1 C1 00 00 00 00
 182.333062 1  71E             Rx   d 8 10 23 62 F1 C1 A6 32 F7
 182.341992 1  716             Tx   d 8 30 08 0A 00 00 00 00 00
 182.348023 1  71E             Rx   d 8 21 CD 4D F6 CD A6 04 EB
 182.363019 1  71E             Rx   d 8 22 7E 3A 2E 85 0A 39 2D
 182.378121 1  71E             Rx   d 8 23 6D F1 C0 AA 2C 5A F0
 182.393121 1  71E             Rx   d 8 24 13 B5 45 F5 BC C9 D6
 182.408103 1  71E             Rx   d 8 25 FD AA AA AA AA AA AA
 185.585791 1  716             Tx   d 8 03 22 F1 95 00 00 00 00
 185.603005 1  71E             Rx   d 8 10 08 62 F1 95 30 31 2E
 185.610387 1  716             Tx   d 8 30 08 0A 00 00 00 00 00
 185.613039 1  71E             Rx   d 8 21 30 31 AA AA AA AA AA
 188.794588 1  716             Tx   d 8 03 22 F1 A0 00 00 00 00
 188.813222 1  71E             Rx   d 8 10 08 62 F1 A0 30 31 2E
 188.821258 1  716             Tx   d 8 30 08 0A 00 00 00 00 00
 188.823167 1  71E             Rx   d 8 21 30 31 AA AA AA AA AA
 191.999940 1  716             Tx   d 8 03 22 F1 A1 00 00 00 00
 192.023340 1  71E             Rx   d 8 07 62 F1 A1 61 38 31 32
 195.202045 1  716             Tx   d 8 03 22 F1 B0 00 00 00 00
 195.223398 1  71E             Rx   d 8 04 62 F1 B0 01 AA AA AA
 198.399165 1  716             Tx   d 8 03 22 F1 B1 00 00 00 00
 198.413381 1  71E             Rx   d 8 10 08 62 F1 B1 30 31 2E
 198.419138 1  716             Tx   d 8 30 08 0A 00 00 00 00 00
 198.423368 1  71E             Rx   d 8 21 30 31 AA AA AA AA AA
 201.610567 1  716             Tx   d 8 03 22 F1 DD 00 00 00 00
 201.633442 1  71E             Rx   d 8 10 0B 62 F1 DD 30 31 2E
 201.643934 1  716             Tx   d 8 30 08 0A 00 00 00 00 00
 201.648670 1  71E             Rx   d 8 21 30 31 2E 30 30 AA AA
 204.825644 1  716             Tx   d 8 03 22 F1 97 00 00 00 00
 204.843455 1  71E             Rx   d 8 07 62 F1 97 4D 4B 42 44
 208.025216 1  716             Tx   d 8 03 22 F1 FF 00 00 00 00
 208.043669 1  71E             Rx   d 8 03 7F 22 31 AA AA AA AA
 211.236934 1  716             Tx   d 8 02 10 01 00 00 00 00 00
 211.253906 1  71E             Rx   d 8 06 50 01 00 32 01 F4 AA
 214.440048 1  716             Tx   d 8 02 27 01 00 00 00 00 00
 214.443868 1  71E             Rx   d 8 03 7F 27 7F AA AA AA AA
 220.800467 1  716             Tx   d 8 02 10 03 00 00 00 00 00
 220.824109 1  71E             Rx   d 8 06 50 03 00 32 01 F4 AA
 227.195867 1  716             Tx   d 8 02 27 01 00 00 00 00 00
 227.204244 1  71E             Rx   d 8 03 7F 27 7F AA AA AA AA
 230.385800 1  716             Tx   d 8 02 10 03 00 00 00 00 00
 230.404261 1  71E             Rx   d 8 06 50 03 00 32 01 F4 AA
 233.581559 1  716             Tx   d 8 02 27 11 00 00 00 00 00
 233.604344 1  71E             Rx   d 8 10 0A 67 11 96 B8 4E B4
 233.613207 1  716             Tx   d 8 30 08 0A 00 00 00 00 00
 233.619421 1  71E             Rx   d 8 21 9A 65 83 ED AA AA AA
 237.453629 1  716             Tx   d 8 10 0A 27 12 83 09 69 38
 237.454807 1  71E             Rx   d 8 30 00 05 AA AA AA AA AA
 237.466072 1  716             Tx   d 8 21 53 1A FA E0 00 00 00
 237.484535 1  71E             Rx   d 8 02 67 12 AA AA AA AA AA
 240.657079 1  716             Tx   d 8 02 10 03 00 00 00 00 00
 240.674567 1  71E             Rx   d 8 06 50 03 00 32 01 F4 AA
 243.858217 1  716             Tx   d 8 02 27 11 00 00 00 00 00
 243.874636 1  71E             Rx   d 8 10 0A 67 11 C3 08 AB F0
 243.883723 1  716             Tx   d 8 30 08 0A 00 00 00 00 00
 243.889776 1  71E             Rx   d 8 21 01 27 2F 76 AA AA AA
 247.624976 1  716             Tx   d 8 10 0A 27 12 DC B8 E6 7D
 247.626160 1  71E             Rx   d 8 30 00 05 AA AA AA AA AA
 247.637137 1  716             Tx   d 8 21 CF 21 17 D6 00 00 00
 247.654714 1  71E             Rx   d 8 02 67 12 AA AA AA AA AA
 250.823532 1  716             Tx   d 8 07 2E F1 A1 61 38 31 32
 250.864893 1  71E             Rx   d 8 03 7F 2E 78 AA AA AA AA
 250.875204 1  71E             Rx   d 8 03 6E F1 A1 AA AA AA AA
 254.043260 1  716             Tx   d 8 07 2E F1 8B 00 00 00 00
 254.085235 1  71E             Rx   d 8 03 7F 2E 78 AA AA AA AA
 254.095371 1  71E             Rx   d 8 03 6E F1 8B AA AA AA AA
 257.277623 1  716             Tx   d 8 10 0D 2E F1 8C 61 38 31
 257.278889 1  71E             Rx   d 8 30 00 05 AA AA AA AA AA
 257.294521 1  716             Tx   d 8 21 31 32 33 34 35 37 39
 257.335601 1  71E             Rx   d 8 03 7F 2E 78 AA AA AA AA
 257.345464 1  71E             Rx   d 8 03 6E F1 8C AA AA AA AA
 260.515902 1  716             Tx   d 8 10 0D 2E F1 87 39 36 35
 260.517119 1  71E             Rx   d 8 30 00 05 AA AA AA AA AA
 260.528731 1  716             Tx   d 8 21 34 30 44 59 30 30 30
 260.565280 1  71E             Rx   d 8 03 7F 2E 78 AA AA AA AA
 260.576807 1  71E             Rx   d 8 03 6E F1 87 AA AA AA AA
 263.754721 1  716             Tx   d 8 10 08 2E F1 91 30 31 2E
 263.755937 1  71E             Rx   d 8 30 00 05 AA AA AA AA AA
 263.770270 1  716             Tx   d 8 21 30 30 00 00 00 00 00
 263.785181 1  71E             Rx   d 8 03 7F 2E 31 AA AA AA AA
 266.977849 1  716             Tx   d 8 10 08 2E F1 93 30 31 2E
 266.979030 1  71E             Rx   d 8 30 00 05 AA AA AA AA AA
 266.992442 1  716             Tx   d 8 21 30 30 00 00 00 00 00
 267.015351 1  71E             Rx   d 8 03 7F 2E 31 AA AA AA AA
 270.194144 1  716             Tx   d 8 10 23 2E F1 C1 A6 32 F7
 270.195342 1  71E             Rx   d 8 30 00 05 AA AA AA AA AA
 270.208659 1  716             Tx   d 8 21 CD 4D F6 CD A6 04 EB
 270.216849 1  716             Tx   d 8 22 7E 3A 2E 85 0A 39 2D
 270.223912 1  716             Tx   d 8 23 6D F1 C0 AA 2C 5A F0
 270.231548 1  716             Tx   d 8 24 13 B5 45 F5 BC C9 D6
 270.238497 1  716             Tx   d 8 25 FD 00 00 00 00 00 00
 270.255800 1  71E             Rx   d 8 03 7F 2E 31 AA AA AA AA
 273.426611 1  716             Tx   d 8 10 08 2E F1 95 30 31 2E
 273.427821 1  71E             Rx   d 8 30 00 05 AA AA AA AA AA
 273.439275 1  716             Tx   d 8 21 30 30 00 00 00 00 00
 273.455488 1  71E             Rx   d 8 03 7F 2E 31 AA AA AA AA
 276.635537 1  716             Tx   d 8 07 2E F1 97 4D 4B 42 44
 276.655589 1  71E             Rx   d 8 03 7F 2E 31 AA AA AA AA
 279.833792 1  716             Tx   d 8 02 10 03 00 00 00 00 00
 279.855691 1  71E             Rx   d 8 06 50 03 00 32 01 F4 AA
 283.035406 1  716             Tx   d 8 02 27 11 00 00 00 00 00
 283.055747 1  71E             Rx   d 8 10 0A 67 11 BD 37 F0 C1
 283.063620 1  716             Tx   d 8 30 08 0A 00 00 00 00 00
 283.065779 1  71E             Rx   d 8 21 93 0E 3B 10 AA AA AA
 286.797799 1  716             Tx   d 8 02 27 13 00 00 00 00 00
 286.805812 1  71E             Rx   d 8 03 7F 27 12 AA AA AA AA
 293.186368 1  716             Tx   d 8 07 2E F1 8B 00 00 00 00
 293.195933 1  71E             Rx   d 8 03 7F 2E 33 AA AA AA AA
 296.377854 1  716             Tx   d 8 10 0D 2E F1 8C 61 38 31
 296.378953 1  71E             Rx   d 8 30 00 05 AA AA AA AA AA
 296.391758 1  716             Tx   d 8 21 31 32 33 34 35 37 39
 296.396073 1  71E             Rx   d 8 03 7F 2E 33 AA AA AA AA
 299.579909 1  716             Tx   d 8 10 0D 2E F1 87 39 36 35
 299.581105 1  71E             Rx   d 8 30 00 05 AA AA AA AA AA
 299.592066 1  716             Tx   d 8 21 34 30 44 59 30 30 30
 299.596057 1  71E             Rx   d 8 03 7F 2E 33 AA AA AA AA
 302.779042 1  716             Tx   d 8 10 08 2E F1 91 30 31 2E
 302.780287 1  71E             Rx   d 8 30 00 05 AA AA AA AA AA
 302.793948 1  716             Tx   d 8 21 30 30 00 00 00 00 00
 302.806299 1  71E             Rx   d 8 03 7F 2E 33 AA AA AA AA
 305.990352 1  716             Tx   d 8 10 08 2E F1 93 30 31 2E
 305.991566 1  71E             Rx   d 8 30 00 05 AA AA AA AA AA
 306.003332 1  716             Tx   d 8 21 30 30 00 00 00 00 00
 306.016252 1  71E             Rx   d 8 03 7F 2E 33 AA AA AA AA
 309.197574 1  716             Tx   d 8 10 23 2E F1 C1 A6 32 F7
 309.198779 1  71E             Rx   d 8 30 00 05 AA AA AA AA AA
 309.212195 1  716             Tx   d 8 21 CD 4D F6 CD A6 04 EB
 309.218701 1  716             Tx   d 8 22 7E 3A 2E 85 0A 39 2D
 309.225108 1  716             Tx   d 8 23 6D F1 C0 AA 2C 5A F0
 309.230164 1  716             Tx   d 8 24 13 B5 45 F5 BC C9 D6
 309.235981 1  716             Tx   d 8 25 FD 00 00 00 00 00 00
 309.246463 1  71E             Rx   d 8 03 7F 2E 33 AA AA AA AA
 312.423688 1  716             Tx   d 8 10 08 2E F1 95 30 31 2E
 312.424900 1  71E             Rx   d 8 30 00 05 AA AA AA AA AA
 312.441273 1  716             Tx   d 8 21 30 30 00 00 00 00 00
 312.446380 1  71E             Rx   d 8 03 7F 2E 33 AA AA AA AA
 315.626775 1  716             Tx   d 8 07 2E F1 97 4D 4B 42 44
 315.636579 1  71E             Rx   d 8 03 7F 2E 33 AA AA AA AA
 318.832795 1  716             Tx   d 8 02 3E 00 00 00 00 00 00
 318.836531 1  71E             Rx   d 8 02 7E 00 AA AA AA AA AA
End TriggerBlock
