date Mon Jun 30 06:44:32.681 PM 2025
base hex  timestamps absolute
internal events logged
Begin Triggerblock Mon Jun 30 06:44:32.703 PM 2025
 0.000000 Start of measurement
 0.000000 1  716             Tx   d 8 03 22 F1 DD 00 00 00 00
 0.017066 1  71E             Rx   d 8 10 0B 62 F1 DD 30 31 2E
 0.024843 1  716             Tx   d 8 30 08 0A 00 00 00 00 00
 0.027066 1  71E             Rx   d 8 21 30 31 2E 30 30 AA AA
 3.192380 1  716             Tx   d 8 03 22 F1 00 00 00 00 00
 3.207335 1  71E             Rx   d 8 06 62 F1 00 25 04 01 AA
 6.381085 1  716             Tx   d 8 03 22 F1 8B 00 00 00 00
 6.397259 1  71E             Rx   d 8 07 62 F1 8B 00 00 00 00
 9.555648 1  716             Tx   d 8 03 22 F1 8C 00 00 00 00
 9.577290 1  71E             Rx   d 8 10 0D 62 F1 8C 61 38 31
 9.582839 1  716             Tx   d 8 30 08 0A 00 00 00 00 00
 9.587461 1  71E             Rx   d 8 21 31 32 33 34 35 37 39
 12.757241 1  716             Tx   d 8 03 22 F1 93 00 00 00 00
 12.777363 1  71E             Rx   d 8 10 08 62 F1 93 30 31 2E
 12.783530 1  716             Tx   d 8 30 08 0A 00 00 00 00 00
 12.787459 1  71E             Rx   d 8 21 30 30 AA AA AA AA AA
 16.016927 1  716             Tx   d 8 02 10 01 00 00 00 00 00
 16.038059 1  71E             Rx   d 8 06 50 01 00 32 01 F4 AA
 19.257405 1  716             Tx   d 8 02 10 03 00 00 00 00 00
 19.277655 1  71E             Rx   d 8 06 50 03 00 32 01 F4 AA
 22.508922 1  716             Tx   d 8 02 10 FF 00 00 00 00 00
 22.517779 1  71E             Rx   d 8 03 7F 10 12 AA AA AA AA
 25.746955 1  716             Tx   d 8 01 10 00 00 00 00 00 00
 25.757762 1  71E             Rx   d 8 03 7F 10 13 AA AA AA AA
 28.935712 1  716             Tx   d 8 02 11 01 00 00 00 00 00
 28.948900 1  71E             Rx   d 8 02 51 01 AA AA AA AA AA
 32.130042 1  716             Tx   d 8 02 11 03 00 00 00 00 00
 32.134377 1  71E             Rx   d 8 03 7F 11 12 AA AA AA AA
 35.306235 1  716             Tx   d 8 02 11 08 00 00 00 00 00
 35.314546 1  71E             Rx   d 8 03 7F 11 12 AA AA AA AA
 38.500004 1  716             Tx   d 8 01 11 00 00 00 00 00 00
 38.504531 1  71E             Rx   d 8 03 7F 11 13 AA AA AA AA
 41.730727 1  716             Tx   d 8 02 10 03 00 00 00 00 00
 41.745061 1  71E             Rx   d 8 06 50 03 00 32 01 F4 AA
 44.924193 1  7DF             Tx   d 8 30 08 0A 00 00 00 00 00
 44.934296 1  7DF             Tx   d 8 30 08 0A 00 00 00 00 00
 44.939190 1  7DF             Tx   d 8 30 08 0A 00 00 00 00 00
 44.944447 1  7DF             Tx   d 8 30 08 0A 00 00 00 00 00
 44.957661 1  7DF             Tx   d 8 30 08 0A 00 00 00 00 00
 44.969896 1  7DF             Tx   d 8 30 08 0A 00 00 00 00 00
 44.988549 1  7DF             Tx   d 8 03 28 00 00 00 00 00 00
 48.120003 1  7DF             Tx   d 8 03 28 01 01 00 00 00 00
 48.134903 1  71E             Rx   d 8 02 68 01 AA AA AA AA AA
 51.311662 1  7DF             Tx   d 8 03 28 02 02 00 00 00 00
 51.334795 1  71E             Rx   d 8 02 68 02 AA AA AA AA AA
 54.518358 1  7DF             Tx   d 8 03 28 03 03 00 00 00 00
 54.535076 1  71E             Rx   d 8 02 68 03 AA AA AA AA AA
 57.709067 1  7DF             Tx   d 8 03 28 08 08 00 00 00 00
 62.953025 1  716             Tx   d 8 02 10 01 00 00 00 00 00
 62.975260 1  71E             Rx   d 8 06 50 01 00 32 01 F4 AA
 66.102839 1  716             Tx   d 8 01 85 00 00 00 00 00 00
 66.116369 1  71E             Rx   d 8 03 7F 85 7F AA AA AA AA
 69.291934 1  716             Tx   d 8 02 85 01 00 00 00 00 00
 69.305293 1  71E             Rx   d 8 03 7F 85 7F AA AA AA AA
 72.474918 1  716             Tx   d 8 02 85 02 00 00 00 00 00
 72.485433 1  71E             Rx   d 8 03 7F 85 7F AA AA AA AA
 75.665999 1  716             Tx   d 8 02 85 01 00 00 00 00 00
 75.675402 1  71E             Rx   d 8 03 7F 85 7F AA AA AA AA
 78.847379 1  716             Tx   d 8 02 85 FF 00 00 00 00 00
 78.855564 1  71E             Rx   d 8 03 7F 85 7F AA AA AA AA
 82.089537 1  716             Tx   d 8 02 10 03 00 00 00 00 00
 82.105716 1  71E             Rx   d 8 06 50 03 00 32 01 F4 AA
 85.280383 1  716             Tx   d 8 01 85 00 00 00 00 00 00
 85.285749 1  71E             Rx   d 8 03 7F 85 13 AA AA AA AA
 88.464723 1  716             Tx   d 8 02 85 01 00 00 00 00 00
 88.475702 1  71E             Rx   d 8 02 C5 01 AA AA AA AA AA
 91.648370 1  716             Tx   d 8 02 85 02 00 00 00 00 00
 91.655854 1  71E             Rx   d 8 02 C5 02 AA AA AA AA AA
 94.829478 1  716             Tx   d 8 02 85 08 00 00 00 00 00
 94.835859 1  71E             Rx   d 8 03 7F 85 12 AA AA AA AA
 98.011826 1  716             Tx   d 8 02 85 0A 00 00 00 00 00
 98.016157 1  71E             Rx   d 8 03 7F 85 12 AA AA AA AA
 101.190246 1  716             Tx   d 8 03 19 01 FF 00 00 00 00
 101.196136 1  71E             Rx   d 8 06 59 01 FF 00 00 00 AA
 104.373946 1  716             Tx   d 8 03 19 02 FF 00 00 00 00
 104.386189 1  71E             Rx   d 8 03 59 02 FF AA AA AA AA
 107.558213 1  716             Tx   d 8 03 19 0F FF 00 00 00 00
 107.567240 1  71E             Rx   d 8 03 7F 19 12 AA AA AA AA
 110.739017 1  716             Tx   d 8 03 19 0F FF 00 00 00 00
 110.747448 1  71E             Rx   d 8 03 7F 19 12 AA AA AA AA
 113.937354 1  716             Tx   d 8 03 19 FF FF 00 00 00 00
 113.947437 1  71E             Rx   d 8 03 7F 19 12 AA AA AA AA
 117.127636 1  716             Tx   d 8 04 14 FF FF FF 00 00 00
 117.136476 1  71E             Rx   d 8 01 54 AA AA AA AA AA AA
 120.311784 1  716             Tx   d 8 04 14 FF EE EE 00 00 00
 120.317564 1  71E             Rx   d 8 03 7F 14 22 AA AA AA AA
 123.493251 1  716             Tx   d 8 01 14 00 00 00 00 00 00
 123.506719 1  71E             Rx   d 8 03 7F 14 13 AA AA AA AA
 126.749720 1  716             Tx   d 8 02 10 01 00 00 00 00 00
 126.767981 1  71E             Rx   d 8 06 50 01 00 32 01 F4 AA
 129.954643 1  716             Tx   d 8 03 22 F1 EF 00 00 00 00
 129.976836 1  71E             Rx   d 8 10 2B 62 F1 EF 07 16 0B
 129.987458 1  716             Tx   d 8 30 08 0A 00 00 00 00 00
 129.992017 1  71E             Rx   d 8 21 52 31 30 20 4B 59 31
 130.007087 1  71E             Rx   d 8 22 2F 31 2F 30 0C 52 31
 130.022106 1  71E             Rx   d 8 23 35 35 20 4B 59 31 2F
 130.036789 1  71E             Rx   d 8 24 31 2F 30 0C 52 31 35
 130.051977 1  71E             Rx   d 8 25 36 20 4B 59 31 2F 31
 130.066710 1  71E             Rx   d 8 26 2F 30 AA AA AA AA AA
 133.240873 1  716             Tx   d 8 03 22 F1 00 00 00 00 00
 133.256838 1  71E             Rx   d 8 06 62 F1 00 25 04 01 AA
 136.436443 1  716             Tx   d 8 03 22 F1 87 00 00 00 00
 136.457077 1  71E             Rx   d 8 10 0D 62 F1 87 39 36 35
 136.468885 1  716             Tx   d 8 30 08 0A 00 00 00 00 00
 136.472155 1  71E             Rx   d 8 21 34 30 44 59 30 30 30
 139.644138 1  716             Tx   d 8 03 22 F1 8B 00 00 00 00
 139.667120 1  71E             Rx   d 8 07 62 F1 8B 00 00 00 00
 142.843772 1  716             Tx   d 8 03 22 F1 8C 00 00 00 00
 142.867150 1  71E             Rx   d 8 10 0D 62 F1 8C 61 38 31
 142.874691 1  716             Tx   d 8 30 08 0A 00 00 00 00 00
 142.877147 1  71E             Rx   d 8 21 31 32 33 34 35 37 39
 146.065660 1  716             Tx   d 8 03 22 F1 91 00 00 00 00
 146.087247 1  71E             Rx   d 8 10 08 62 F1 91 30 31 2E
 146.096082 1  716             Tx   d 8 30 08 0A 00 00 00 00 00
 146.102223 1  71E             Rx   d 8 21 30 30 AA AA AA AA AA
 149.279606 1  716             Tx   d 8 03 22 F1 93 00 00 00 00
 149.297307 1  71E             Rx   d 8 10 08 62 F1 93 30 31 2E
 149.308703 1  716             Tx   d 8 30 08 0A 00 00 00 00 00
 149.312361 1  71E             Rx   d 8 21 30 30 AA AA AA AA AA
 152.485989 1  716             Tx   d 8 03 22 F1 C1 00 00 00 00
 152.507361 1  71E             Rx   d 8 10 23 62 F1 C1 A6 32 F7
 152.516371 1  716             Tx   d 8 30 08 0A 00 00 00 00 00
 152.522346 1  71E             Rx   d 8 21 CD 4D F6 CD A6 04 EB
 152.537637 1  71E             Rx   d 8 22 7E 3A 2E 85 0A 39 2D
 152.552601 1  71E             Rx   d 8 23 6D F1 C0 AA 2C 5A F0
 152.568333 1  71E             Rx   d 8 24 13 B5 45 F5 BC C9 D6
 152.582450 1  71E             Rx   d 8 25 FD AA AA AA AA AA AA
 155.772048 1  716             Tx   d 8 03 22 F1 95 00 00 00 00
 155.787493 1  71E             Rx   d 8 10 08 62 F1 95 30 31 2E
 155.796540 1  716             Tx   d 8 30 08 0A 00 00 00 00 00
 155.802402 1  71E             Rx   d 8 21 30 31 AA AA AA AA AA
 158.990862 1  716             Tx   d 8 03 22 F1 A0 00 00 00 00
 159.007436 1  71E             Rx   d 8 10 08 62 F1 A0 30 31 2E
 159.015990 1  716             Tx   d 8 30 08 0A 00 00 00 00 00
 159.017383 1  71E             Rx   d 8 21 30 31 AA AA AA AA AA
 162.192837 1  716             Tx   d 8 03 22 F1 A1 00 00 00 00
 162.207586 1  71E             Rx   d 8 07 62 F1 A1 61 38 31 32
 165.398073 1  716             Tx   d 8 03 22 F1 B0 00 00 00 00
 165.417611 1  71E             Rx   d 8 04 62 F1 B0 01 AA AA AA
 168.594611 1  716             Tx   d 8 03 22 F1 B1 00 00 00 00
 168.617802 1  71E             Rx   d 8 10 08 62 F1 B1 30 31 2E
 168.629004 1  716             Tx   d 8 30 08 0A 00 00 00 00 00
 168.632791 1  71E             Rx   d 8 21 30 31 AA AA AA AA AA
 171.807412 1  716             Tx   d 8 03 22 F1 DD 00 00 00 00
 171.827722 1  71E             Rx   d 8 10 0B 62 F1 DD 30 31 2E
 171.834334 1  716             Tx   d 8 30 08 0A 00 00 00 00 00
 171.837803 1  71E             Rx   d 8 21 30 31 2E 30 30 AA AA
 175.016456 1  716             Tx   d 8 03 22 F1 97 00 00 00 00
 175.037849 1  71E             Rx   d 8 07 62 F1 97 4D 4B 42 44
 178.283360 1  716             Tx   d 8 02 10 03 00 00 00 00 00
 178.297894 1  71E             Rx   d 8 06 50 03 00 32 01 F4 AA
 181.472732 1  716             Tx   d 8 03 22 F1 EF 00 00 00 00
 181.488278 1  71E             Rx   d 8 10 2B 62 F1 EF 07 16 0B
 181.499507 1  716             Tx   d 8 30 08 0A 00 00 00 00 00
 181.503142 1  71E             Rx   d 8 21 52 31 30 20 4B 59 31
 181.519123 1  71E             Rx   d 8 22 2F 31 2F 30 0C 52 31
 181.533350 1  71E             Rx   d 8 23 35 35 20 4B 59 31 2F
 181.549370 1  71E             Rx   d 8 24 31 2F 30 0C 52 31 35
 181.562934 1  71E             Rx   d 8 25 36 20 4B 59 31 2F 31
 181.578148 1  71E             Rx   d 8 26 2F 30 AA AA AA AA AA
 184.756174 1  716             Tx   d 8 03 22 F1 00 00 00 00 00
 184.778124 1  71E             Rx   d 8 06 62 F1 00 25 04 01 AA
 187.955389 1  716             Tx   d 8 03 22 F1 87 00 00 00 00
 187.978227 1  71E             Rx   d 8 10 0D 62 F1 87 39 36 35
 187.985838 1  716             Tx   d 8 30 08 0A 00 00 00 00 00
 187.988256 1  71E             Rx   d 8 21 34 30 44 59 30 30 30
 191.164403 1  716             Tx   d 8 03 22 F1 8B 00 00 00 00
 191.178234 1  71E             Rx   d 8 07 62 F1 8B 00 00 00 00
 194.359309 1  716             Tx   d 8 03 22 F1 8C 00 00 00 00
 194.378413 1  71E             Rx   d 8 10 0D 62 F1 8C 61 38 31
 194.388202 1  716             Tx   d 8 30 08 0A 00 00 00 00 00
 194.393345 1  71E             Rx   d 8 21 31 32 33 34 35 37 39
 197.576947 1  716             Tx   d 8 03 22 F1 91 00 00 00 00
 197.598443 1  71E             Rx   d 8 10 08 62 F1 91 30 31 2E
 197.607460 1  716             Tx   d 8 30 08 0A 00 00 00 00 00
 197.613448 1  71E             Rx   d 8 21 30 30 AA AA AA AA AA
 200.792565 1  716             Tx   d 8 03 22 F1 93 00 00 00 00
 200.808560 1  71E             Rx   d 8 10 08 62 F1 93 30 31 2E
 200.819580 1  716             Tx   d 8 30 08 0A 00 00 00 00 00
 200.823697 1  71E             Rx   d 8 21 30 30 AA AA AA AA AA
 204.005998 1  716             Tx   d 8 03 22 F1 C1 00 00 00 00
 204.028566 1  71E             Rx   d 8 10 23 62 F1 C1 A6 32 F7
 204.036620 1  716             Tx   d 8 30 08 0A 00 00 00 00 00
 204.038542 1  71E             Rx   d 8 21 CD 4D F6 CD A6 04 EB
 204.053974 1  71E             Rx   d 8 22 7E 3A 2E 85 0A 39 2D
 204.068847 1  71E             Rx   d 8 23 6D F1 C0 AA 2C 5A F0
 204.083548 1  71E             Rx   d 8 24 13 B5 45 F5 BC C9 D6
 204.098568 1  71E             Rx   d 8 25 FD AA AA AA AA AA AA
 207.281453 1  716             Tx   d 8 03 22 F1 95 00 00 00 00
 207.298686 1  71E             Rx   d 8 10 08 62 F1 95 30 31 2E
 207.307265 1  716             Tx   d 8 30 08 0A 00 00 00 00 00
 207.308577 1  71E             Rx   d 8 21 30 31 AA AA AA AA AA
 210.494460 1  716             Tx   d 8 03 22 F1 A0 00 00 00 00
 210.508635 1  71E             Rx   d 8 10 08 62 F1 A0 30 31 2E
 210.514926 1  716             Tx   d 8 30 08 0A 00 00 00 00 00
 210.519721 1  71E             Rx   d 8 21 30 31 AA AA AA AA AA
 213.694618 1  716             Tx   d 8 03 22 F1 A1 00 00 00 00
 213.708842 1  71E             Rx   d 8 07 62 F1 A1 61 38 31 32
 216.896456 1  716             Tx   d 8 03 22 F1 B0 00 00 00 00
 216.919966 1  71E             Rx   d 8 04 62 F1 B0 01 AA AA AA
 220.096495 1  716             Tx   d 8 03 22 F1 B1 00 00 00 00
 220.120080 1  71E             Rx   d 8 10 08 62 F1 B1 30 31 2E
 220.128116 1  716             Tx   d 8 30 08 0A 00 00 00 00 00
 220.134037 1  71E             Rx   d 8 21 30 31 AA AA AA AA AA
 223.313488 1  716             Tx   d 8 03 22 F1 DD 00 00 00 00
 223.330088 1  71E             Rx   d 8 10 0B 62 F1 DD 30 31 2E
 223.337048 1  716             Tx   d 8 30 08 0A 00 00 00 00 00
 223.338979 1  71E             Rx   d 8 21 30 31 2E 30 30 AA AA
 226.515449 1  716             Tx   d 8 03 22 F1 97 00 00 00 00
 226.539142 1  71E             Rx   d 8 07 62 F1 97 4D 4B 42 44
 229.720174 1  716             Tx   d 8 03 22 F1 FF 00 00 00 00
 229.739163 1  71E             Rx   d 8 03 7F 22 31 AA AA AA AA
 232.916929 1  716             Tx   d 8 01 22 00 00 00 00 00 00
 232.930356 1  71E             Rx   d 8 03 7F 22 13 AA AA AA AA
 236.179674 1  716             Tx   d 8 02 10 01 00 00 00 00 00
 236.199324 1  71E             Rx   d 8 06 50 01 00 32 01 F4 AA
 239.397004 1  716             Tx   d 8 02 3E 00 00 00 00 00 00
 239.409458 1  71E             Rx   d 8 02 7E 00 AA AA AA AA AA
 242.587681 1  716             Tx   d 8 02 3E FF 00 00 00 00 00
 242.599383 1  71E             Rx   d 8 03 7F 3E 12 AA AA AA AA
 245.839791 1  716             Tx   d 8 02 10 03 00 00 00 00 00
 245.859547 1  71E             Rx   d 8 06 50 03 00 32 01 F4 AA
 249.035566 1  716             Tx   d 8 02 3E 00 00 00 00 00 00
 249.039524 1  71E             Rx   d 8 02 7E 00 AA AA AA AA AA
 252.221666 1  716             Tx   d 8 02 3E FF 00 00 00 00 00
 252.229696 1  71E             Rx   d 8 03 7F 3E 12 AA AA AA AA
 255.477978 1  716             Tx   d 8 02 10 03 00 00 00 00 00
 255.499855 1  71E             Rx   d 8 06 50 03 00 32 01 F4 AA
 258.684245 1  716             Tx   d 8 02 27 11 00 00 00 00 00
 258.700011 1  71E             Rx   d 8 10 0A 67 11 4A 66 B0 17
 258.710064 1  716             Tx   d 8 30 08 0A 00 00 00 00 00
 258.716079 1  71E             Rx   d 8 21 BE A5 DF E6 AA AA AA
 262.496428 1  716             Tx   d 8 10 0A 27 12 1A 82 9E 72
 262.497652 1  71E             Rx   d 8 30 00 05 AA AA AA AA AA
 262.509362 1  716             Tx   d 8 21 5F FF 50 85 00 00 00
 262.531020 1  71E             Rx   d 8 02 67 12 AA AA AA AA AA
 265.707468 1  716             Tx   d 8 07 2E F1 A1 61 38 31 32
 265.751122 1  71E             Rx   d 8 03 7F 2E 78 AA AA AA AA
 265.760280 1  71E             Rx   d 8 03 6E F1 A1 AA AA AA AA
 268.933535 1  716             Tx   d 8 07 2E F1 8B 00 00 00 00
 268.971077 1  71E             Rx   d 8 03 7F 2E 78 AA AA AA AA
 268.980175 1  71E             Rx   d 8 03 6E F1 8B AA AA AA AA
 272.156940 1  716             Tx   d 8 10 23 2E F1 8C 61 38 31
 272.158210 1  71E             Rx   d 8 30 00 05 AA AA AA AA AA
 272.172766 1  716             Tx   d 8 21 31 32 33 34 35 37 39
 272.179601 1  716             Tx   d 8 22 31 32 33 34 35 37 39
 272.184980 1  716             Tx   d 8 23 61 38 31 31 32 33 34
 272.189480 1  716             Tx   d 8 24 35 37 39 31 32 33 34
 272.197113 1  716             Tx   d 8 25 35 00 00 00 00 00 00
 272.220217 1  71E             Rx   d 8 03 7F 2E 13 AA AA AA AA
 275.395552 1  716             Tx   d 8 10 0D 2E F1 8C 61 38 31
 275.396750 1  71E             Rx   d 8 30 00 05 AA AA AA AA AA
 275.407965 1  716             Tx   d 8 21 31 32 33 34 35 37 39
 275.450618 1  71E             Rx   d 8 03 7F 2E 78 AA AA AA AA
 275.460622 1  71E             Rx   d 8 03 6E F1 8C AA AA AA AA
 278.649699 1  716             Tx   d 8 10 0D 2E F1 87 39 36 35
 278.650919 1  71E             Rx   d 8 30 00 05 AA AA AA AA AA
 278.664833 1  716             Tx   d 8 21 34 30 44 59 30 30 30
 278.700467 1  71E             Rx   d 8 03 7F 2E 78 AA AA AA AA
 278.710773 1  71E             Rx   d 8 03 6E F1 87 AA AA AA AA
 281.887390 1  716             Tx   d 8 10 08 2E F1 91 30 31 2E
 281.888593 1  71E             Rx   d 8 30 00 05 AA AA AA AA AA
 281.899934 1  716             Tx   d 8 21 30 30 00 00 00 00 00
 281.921424 1  71E             Rx   d 8 03 7F 2E 31 AA AA AA AA
 285.097459 1  716             Tx   d 8 10 08 2E F1 93 30 31 2E
 285.098666 1  71E             Rx   d 8 30 00 05 AA AA AA AA AA
 285.112959 1  716             Tx   d 8 21 30 30 00 00 00 00 00
 285.131562 1  71E             Rx   d 8 03 7F 2E 31 AA AA AA AA
 288.314280 1  716             Tx   d 8 10 23 2E F1 C1 61 38 31
 288.315491 1  71E             Rx   d 8 30 00 05 AA AA AA AA AA
 288.327023 1  716             Tx   d 8 21 31 32 33 34 35 37 39
 288.332576 1  716             Tx   d 8 22 31 32 33 34 35 37 39
 288.338131 1  716             Tx   d 8 23 61 38 31 31 32 33 34
 288.343236 1  716             Tx   d 8 24 35 37 39 31 32 33 34
 288.350351 1  716             Tx   d 8 25 35 00 00 00 00 00 00
 288.371987 1  71E             Rx   d 8 03 7F 2E 31 AA AA AA AA
 291.546837 1  716             Tx   d 8 10 08 2E F1 95 30 31 2E
 291.548210 1  71E             Rx   d 8 30 00 05 AA AA AA AA AA
 291.562127 1  716             Tx   d 8 21 30 30 00 00 00 00 00
 291.580663 1  71E             Rx   d 8 03 7F 2E 31 AA AA AA AA
 294.764972 1  716             Tx   d 8 10 0B 2E F1 97 4D 4B 42
 294.766208 1  71E             Rx   d 8 30 00 05 AA AA AA AA AA
 294.777727 1  716             Tx   d 8 21 44 4D 4B 42 44 00 00
 294.800750 1  71E             Rx   d 8 03 7F 2E 31 AA AA AA AA
 297.976754 1  716             Tx   d 8 10 0B 2E F1 A1 61 38 31
 297.977961 1  71E             Rx   d 8 30 00 05 AA AA AA AA AA
 297.991866 1  716             Tx   d 8 21 32 61 38 31 32 00 00
 298.010814 1  71E             Rx   d 8 03 7F 2E 13 AA AA AA AA
 301.186451 1  716             Tx   d 8 10 0A 2E F1 8B 00 00 00
 301.187680 1  71E             Rx   d 8 30 00 05 AA AA AA AA AA
 301.199998 1  716             Tx   d 8 21 00 00 00 00 00 00 00
 301.220805 1  71E             Rx   d 8 03 7F 2E 13 AA AA AA AA
 304.400234 1  716             Tx   d 8 10 0A 2E F1 8C 61 38 31
 304.401491 1  71E             Rx   d 8 30 00 05 AA AA AA AA AA
 304.414976 1  716             Tx   d 8 21 31 32 33 34 00 00 00
 304.431002 1  71E             Rx   d 8 03 7F 2E 13 AA AA AA AA
 307.618991 1  716             Tx   d 8 10 09 2E F1 87 39 36 35
 307.620200 1  71E             Rx   d 8 30 00 05 AA AA AA AA AA
 307.631432 1  716             Tx   d 8 21 34 30 44 00 00 00 00
 307.651076 1  71E             Rx   d 8 03 7F 2E 13 AA AA AA AA
 310.827808 1  716             Tx   d 8 06 2E F1 91 30 31 2E 00
 310.851165 1  71E             Rx   d 8 03 7F 2E 31 AA AA AA AA
 314.036069 1  716             Tx   d 8 05 2E F1 93 30 31 00 00
 314.051062 1  71E             Rx   d 8 03 7F 2E 31 AA AA AA AA
 317.230492 1  716             Tx   d 8 10 13 2E F1 C1 A6 32 F7
 317.231783 1  71E             Rx   d 8 30 00 05 AA AA AA AA AA
 317.245360 1  716             Tx   d 8 21 CD 4D F6 CD A6 04 EB
 317.252765 1  716             Tx   d 8 22 7E 3A 2E 85 0A 39 00
 317.271388 1  71E             Rx   d 8 03 7F 2E 31 AA AA AA AA
 320.447300 1  716             Tx   d 8 05 2E F1 95 30 31 00 00
 320.461211 1  71E             Rx   d 8 03 7F 2E 31 AA AA AA AA
 323.643813 1  716             Tx   d 8 07 2E F1 97 4D 4B 42 44
 323.661446 1  71E             Rx   d 8 03 7F 2E 31 AA AA AA AA
 326.844007 1  716             Tx   d 8 10 0B 2E F1 A1 61 38 31
 326.845161 1  71E             Rx   d 8 30 00 05 AA AA AA AA AA
 326.856114 1  716             Tx   d 8 21 32 61 38 31 32 00 00
 326.871387 1  71E             Rx   d 8 03 7F 2E 13 AA AA AA AA
 330.048135 1  716             Tx   d 8 10 0A 2E F1 8B 00 00 00
 330.049283 1  71E             Rx   d 8 30 00 05 AA AA AA AA AA
 330.062872 1  716             Tx   d 8 21 00 00 00 00 00 00 00
 330.081546 1  71E             Rx   d 8 03 7F 2E 13 AA AA AA AA
 333.263696 1  716             Tx   d 8 10 14 2E F1 8C 61 38 31
 333.264893 1  71E             Rx   d 8 30 00 05 AA AA AA AA AA
 333.275720 1  716             Tx   d 8 21 31 32 33 34 35 37 39
 333.281772 1  716             Tx   d 8 22 31 32 33 34 35 37 39
 333.301623 1  71E             Rx   d 8 03 7F 2E 13 AA AA AA AA
 336.478227 1  716             Tx   d 8 10 11 2E F1 87 39 36 35
 336.479478 1  71E             Rx   d 8 30 00 05 AA AA AA AA AA
 336.492762 1  716             Tx   d 8 21 34 30 44 59 30 30 30
 336.499456 1  716             Tx   d 8 22 36 35 34 30 00 00 00
 336.522781 1  71E             Rx   d 8 03 7F 2E 13 AA AA AA AA
 339.695178 1  716             Tx   d 8 10 0D 2E F1 91 30 31 2E
 339.696364 1  71E             Rx   d 8 30 00 05 AA AA AA AA AA
 339.707176 1  716             Tx   d 8 21 30 30 30 31 2E 30 30
 339.722759 1  71E             Rx   d 8 03 7F 2E 31 AA AA AA AA
 342.908381 1  716             Tx   d 8 10 0B 2E F1 93 30 31 2E
 342.909522 1  71E             Rx   d 8 30 00 05 AA AA AA AA AA
 342.923344 1  716             Tx   d 8 21 30 30 2E 30 30 00 00
 342.941977 1  71E             Rx   d 8 03 7F 2E 31 AA AA AA AA
 346.126972 1  716             Tx   d 8 10 16 2E F1 C1 A6 32 F7
 346.128203 1  71E             Rx   d 8 30 00 05 AA AA AA AA AA
 346.139251 1  716             Tx   d 8 21 CD 4D F6 CD A6 04 EB
 346.144689 1  716             Tx   d 8 22 7E 3A 2E 85 0A 39 A6
 346.151010 1  716             Tx   d 8 23 32 F7 00 00 00 00 00
 346.172942 1  71E             Rx   d 8 03 7F 2E 31 AA AA AA AA
 349.355653 1  716             Tx   d 8 10 08 2E F1 95 30 31 2E
 349.356862 1  71E             Rx   d 8 30 00 05 AA AA AA AA AA
 349.370429 1  716             Tx   d 8 21 30 30 00 00 00 00 00
 349.392068 1  71E             Rx   d 8 03 7F 2E 31 AA AA AA AA
 352.560760 1  716             Tx   d 8 10 0B 2E F1 97 4D 4B 42
 352.561974 1  71E             Rx   d 8 30 00 05 AA AA AA AA AA
 352.573295 1  716             Tx   d 8 21 44 4D 4B 42 44 00 00
 352.592139 1  71E             Rx   d 8 03 7F 2E 31 AA AA AA AA
 355.821031 1  716             Tx   d 8 02 10 01 00 00 00 00 00
 355.842333 1  71E             Rx   d 8 06 50 01 00 32 01 F4 AA
 359.015443 1  716             Tx   d 8 02 27 11 00 00 00 00 00
 359.022179 1  71E             Rx   d 8 03 7F 27 7F AA AA AA AA
 362.207364 1  716             Tx   d 8 10 0A 27 12 1A 82 9E 72
 362.208661 1  71E             Rx   d 8 30 00 05 AA AA AA AA AA
 362.222942 1  716             Tx   d 8 21 5F FF 50 85 00 00 00
 362.232367 1  71E             Rx   d 8 03 7F 27 7F AA AA AA AA
 365.424231 1  716             Tx   d 8 10 0B 2E F1 A1 61 38 31
 365.425410 1  71E             Rx   d 8 30 00 05 AA AA AA AA AA
 365.436102 1  716             Tx   d 8 21 32 61 38 31 32 00 00
 365.442275 1  71E             Rx   d 8 03 7F 2E 33 AA AA AA AA
 368.625971 1  716             Tx   d 8 10 0A 2E F1 8B 00 00 00
 368.627153 1  71E             Rx   d 8 30 00 05 AA AA AA AA AA
 368.640920 1  716             Tx   d 8 21 00 00 00 00 00 00 00
 368.652517 1  71E             Rx   d 8 03 7F 2E 33 AA AA AA AA
 371.838464 1  716             Tx   d 8 10 14 2E F1 8C 61 38 31
 371.839689 1  71E             Rx   d 8 30 00 05 AA AA AA AA AA
 371.850743 1  716             Tx   d 8 21 31 32 33 34 35 37 39
 371.856195 1  716             Tx   d 8 22 31 32 33 34 35 37 39
 371.862407 1  71E             Rx   d 8 03 7F 2E 33 AA AA AA AA
 375.040231 1  716             Tx   d 8 10 11 2E F1 87 39 36 35
 375.041472 1  71E             Rx   d 8 30 00 05 AA AA AA AA AA
 375.054927 1  716             Tx   d 8 21 34 30 44 59 30 30 30
 375.060985 1  716             Tx   d 8 22 36 35 34 30 00 00 00
 375.072653 1  71E             Rx   d 8 03 7F 2E 33 AA AA AA AA
 378.252063 1  716             Tx   d 8 10 0D 2E F1 91 30 31 2E
 378.253245 1  71E             Rx   d 8 30 00 05 AA AA AA AA AA
 378.264215 1  716             Tx   d 8 21 30 30 30 31 2E 30 30
 378.272618 1  71E             Rx   d 8 03 7F 2E 33 AA AA AA AA
 381.450530 1  716             Tx   d 8 10 0B 2E F1 93 30 31 2E
 381.451726 1  71E             Rx   d 8 30 00 05 AA AA AA AA AA
 381.465166 1  716             Tx   d 8 21 30 30 2E 30 30 00 00
 381.472792 1  71E             Rx   d 8 03 7F 2E 33 AA AA AA AA
 384.656972 1  716             Tx   d 8 10 16 2E F1 C1 A6 32 F7
 384.658160 1  71E             Rx   d 8 30 00 05 AA AA AA AA AA
 384.669129 1  716             Tx   d 8 21 CD 4D F6 CD A6 04 EB
 384.674821 1  716             Tx   d 8 22 7E 3A 2E 85 0A 39 A6
 384.680740 1  716             Tx   d 8 23 32 F7 00 00 00 00 00
 384.692871 1  71E             Rx   d 8 03 7F 2E 33 AA AA AA AA
 387.867300 1  716             Tx   d 8 10 08 2E F1 95 30 31 2E
 387.868629 1  71E             Rx   d 8 30 00 05 AA AA AA AA AA
 387.889517 1  716             Tx   d 8 21 30 30 00 00 00 00 00
 387.903018 1  71E             Rx   d 8 03 7F 2E 33 AA AA AA AA
 391.070637 1  716             Tx   d 8 10 0B 2E F1 97 4D 4B 42
 391.071853 1  71E             Rx   d 8 30 00 05 AA AA AA AA AA
 391.083567 1  716             Tx   d 8 21 44 4D 4B 42 44 00 00
 391.092924 1  71E             Rx   d 8 03 7F 2E 33 AA AA AA AA
 394.334529 1  716             Tx   d 8 02 10 03 00 00 00 00 00
 394.354591 1  71E             Rx   d 8 06 50 03 00 32 01 F4 AA
 397.527482 1  716             Tx   d 8 02 27 11 00 00 00 00 00
 397.543007 1  71E             Rx   d 8 10 0A 67 11 9A 4D EF 16
 397.550713 1  716             Tx   d 8 30 08 0A 00 00 00 00 00
 397.554240 1  71E             Rx   d 8 21 5E 00 2F AF AA AA AA
 401.386043 1  716             Tx   d 8 02 27 13 00 00 00 00 00
 401.393253 1  71E             Rx   d 8 03 7F 27 12 AA AA AA AA
 404.565544 1  716             Tx   d 8 10 0B 2E F1 A1 61 38 31
 404.566762 1  71E             Rx   d 8 30 00 05 AA AA AA AA AA
 404.579162 1  716             Tx   d 8 21 32 61 38 31 32 00 00
 404.583219 1  71E             Rx   d 8 03 7F 2E 33 AA AA AA AA
 407.763482 1  716             Tx   d 8 10 0A 2E F1 8B 00 00 00
 407.764749 1  71E             Rx   d 8 30 00 05 AA AA AA AA AA
 407.779037 1  716             Tx   d 8 21 00 00 00 00 00 00 00
 407.783422 1  71E             Rx   d 8 03 7F 2E 33 AA AA AA AA
 410.959637 1  716             Tx   d 8 10 14 2E F1 8C 61 38 31
 410.960832 1  71E             Rx   d 8 30 00 05 AA AA AA AA AA
 410.971576 1  716             Tx   d 8 21 31 32 33 34 35 37 39
 410.977554 1  716             Tx   d 8 22 31 32 33 34 35 37 39
 410.983414 1  71E             Rx   d 8 03 7F 2E 33 AA AA AA AA
 414.162206 1  716             Tx   d 8 10 11 2E F1 87 39 36 35
 414.163490 1  71E             Rx   d 8 30 00 05 AA AA AA AA AA
 414.178327 1  716             Tx   d 8 21 34 30 44 59 30 30 30
 414.184881 1  716             Tx   d 8 22 36 35 34 30 00 00 00
 414.193519 1  71E             Rx   d 8 03 7F 2E 33 AA AA AA AA
 417.366745 1  716             Tx   d 8 10 0D 2E F1 91 30 31 2E
 417.367988 1  71E             Rx   d 8 30 00 05 AA AA AA AA AA
 417.378807 1  716             Tx   d 8 21 30 30 30 31 2E 30 30
 417.383530 1  71E             Rx   d 8 03 7F 2E 33 AA AA AA AA
 420.559756 1  716             Tx   d 8 10 0B 2E F1 93 30 31 2E
 420.560990 1  71E             Rx   d 8 30 00 05 AA AA AA AA AA
 420.574803 1  716             Tx   d 8 21 30 30 2E 30 30 00 00
 420.583710 1  71E             Rx   d 8 03 7F 2E 33 AA AA AA AA
 423.763752 1  716             Tx   d 8 10 16 2E F1 C1 A6 32 F7
 423.764991 1  71E             Rx   d 8 30 00 05 AA AA AA AA AA
 423.776181 1  716             Tx   d 8 21 CD 4D F6 CD A6 04 EB
 423.781721 1  716             Tx   d 8 22 7E 3A 2E 85 0A 39 A6
 423.787590 1  716             Tx   d 8 23 32 F7 00 00 00 00 00
 423.793723 1  71E             Rx   d 8 03 7F 2E 33 AA AA AA AA
 426.968546 1  716             Tx   d 8 10 08 2E F1 95 30 31 2E
 426.969768 1  71E             Rx   d 8 30 00 05 AA AA AA AA AA
 426.983528 1  716             Tx   d 8 21 30 30 00 00 00 00 00
 426.993873 1  71E             Rx   d 8 03 7F 2E 33 AA AA AA AA
 430.167481 1  716             Tx   d 8 10 0B 2E F1 97 4D 4B 42
 430.168724 1  71E             Rx   d 8 30 00 05 AA AA AA AA AA
 430.179788 1  716             Tx   d 8 21 44 4D 4B 42 44 00 00
 430.183833 1  71E             Rx   d 8 03 7F 2E 33 AA AA AA AA
 433.419272 1  716             Tx   d 8 02 10 03 00 00 00 00 00
 433.434212 1  71E             Rx   d 8 06 50 03 00 32 01 F4 AA
 436.604983 1  716             Tx   d 8 02 27 01 00 00 00 00 00
 436.613987 1  71E             Rx   d 8 03 7F 27 12 AA AA AA AA
 443.048584 1  716             Tx   d 8 02 10 01 00 00 00 00 00
 443.064284 1  71E             Rx   d 8 06 50 01 00 32 01 F4 AA
 446.250403 1  716             Tx   d 8 02 27 11 00 00 00 00 00
 446.254310 1  71E             Rx   d 8 03 7F 27 7F AA AA AA AA
 449.432370 1  716             Tx   d 8 10 0A 27 12 56 38 54 63
 449.433555 1  71E             Rx   d 8 30 00 05 AA AA AA AA AA
 449.444459 1  716             Tx   d 8 21 E5 7D 44 13 00 00 00
 449.454312 1  71E             Rx   d 8 03 7F 27 7F AA AA AA AA
End TriggerBlock
